! Created Sat Apr 22 20:45:39 2023
# hz S ma R 50
! 2 Port Network Data from SP1.SP block
! freq  magS11  angS11  magS21  angS21  magS12  angS12  magS22  angS22  
!     
         600000000       0.567963361        -97.0281408          11.922666         95.1567995       0.0231592198         16.7327529        0.265050512        -50.5050481
         610000000       0.565155758        -98.1820591         11.8196052         94.1506098       0.0234103286         15.6281475        0.262240995        -50.9504812
         620000000       0.562650606        -99.2938483         11.7023857         93.3039693        0.023605461         15.5496714        0.258792752        -51.2801082
         630000000       0.560135597        -100.402083         11.5853606          92.457735       0.0238008292         15.4716015         0.25534655        -51.6090076
         640000000       0.557610137        -101.506783         11.4685277         91.6118821       0.0239964453         15.3939129        0.251902285        -51.9371712
         650000000       0.555058681        -102.603842         11.3553469         90.7579908       0.0241847806         15.2899749        0.248496954        -52.2656764
         660000000       0.552324328        -103.649981         11.2821607         89.8078766        0.024286669         14.8803855        0.245520952        -52.6064069
         670000000       0.549579101        -104.692741         11.2091392         88.8580358       0.0243888473         14.4710695        0.242548239        -52.9472967
         680000000       0.546822453        -105.732135         11.1362808         87.9084445       0.0244913223          14.062003        0.239578646        -53.2883762
         690000000       0.544040353        -106.768538         11.0604759         86.9633732       0.0245904396         13.6406494        0.236608203        -53.6317838
         700000000       0.541100496        -107.805404         10.9513755          86.064727        0.024650462         13.0847966         0.23359819        -53.9985143
         710000000       0.538147531        -108.838892         10.8424379         85.1662389       0.0247108116          12.529102        0.230588036        -54.3662366
         720000000       0.535180914        -109.869016         10.7336594         84.2678837       0.0247714924         11.9735403        0.227577478        -54.7349877
         730000000       0.532277284        -110.887913         10.6279647         83.3790586       0.0248526913         11.4155161        0.224617651        -55.0946034
         740000000       0.530140547         -111.82408         10.5520247         82.5856397       0.0251382576         10.8316397        0.222180016         -55.351988
         750000000        0.52799088        -112.757451         10.4762177         81.7923795       0.0254240829         10.2479221        0.219747471        -55.6101977
         760000000       0.525827885         -113.68805         10.4005419         80.9992589       0.0257101789         9.66434402         0.21731976         -55.869319
         770000000       0.523640793        -114.613596         10.3251071         80.2028286        0.025972858         9.08656867        0.214870652        -56.1284884
         780000000        0.52134113        -115.514455         10.2508651         79.3738151        0.026010066         8.56301801        0.212175856        -56.3797801
         790000000       0.519027668        -116.412616         10.1767436         78.5448705       0.0260475732         8.03953618         0.20948031        -56.6323947
         800000000       0.516700038        -117.308099         10.1027402         77.7159761       0.0260853812         7.51610465        0.206783784        -56.8863764
         810000000       0.514350233        -118.200515         10.0266314         76.8947074       0.0261337686         7.01410022         0.20414872        -57.1348066
         820000000       0.511916846        -119.086592         9.93064628         76.1417909        0.026274954         6.70466178        0.202076681        -57.3219057
         830000000       0.509468317        -119.970025         9.83476886         75.3888599       0.0264164516         6.39520884         0.20000375        -57.5102869
         840000000       0.507004289        -120.850834         9.73899562          74.635896       0.0265582658         6.08572295        0.197929721        -57.6999885
         850000000       0.504546747        -121.722732         9.64862084         73.8819793        0.026684914          5.7384451        0.195792589        -57.8650881
         860000000       0.502264438        -122.538405         9.60350083         73.1203288       0.0266798534         5.06942345        0.193126242        -57.8113204
         870000000       0.499967527        -123.351694         9.55847524         72.3586286       0.0266750683         4.40035218         0.19045637        -57.7608883
         880000000       0.497655724        -124.162615         9.51354232         71.5968633       0.0266705576         3.73121573        0.187782592        -57.7139038
         890000000        0.49539278        -124.972373         9.46509596          70.821496        0.026678196         3.10360685        0.185224155        -57.7167371
         900000000       0.493632391        -125.789574         9.38757585         69.9366746       0.0267822028         2.81259149        0.183630642        -58.0962545
         910000000       0.491856108         -126.60477         9.31014181         69.0518161       0.0268865013         2.52153904        0.182035377         -58.477274
         920000000       0.490063678        -127.417989         9.23279126         68.1669058       0.0269910944         2.23043484        0.180438217        -58.8598242
         930000000       0.488249661        -128.226863         9.15799667          67.308524       0.0271000824         1.92598915         0.17882124        -59.1848474
         940000000       0.486379428        -129.015345         9.10232856         66.6547251       0.0272409037         1.51930145        0.177065543        -59.0576174
         950000000       0.484492977        -129.801922         9.04673829           66.00083       0.0273820243         1.11251744        0.175307861        -58.9336006
         960000000       0.482590078        -130.586621         8.99122383         65.3468247       0.0275234472        0.705623296        0.173547907         -58.812888
         970000000       0.480669993        -131.365658          8.9366701         64.6738469       0.0276685544        0.300465231        0.171809843        -58.7408965
         980000000       0.478729846        -132.114914         8.88869183         63.8625133        0.027838745       -0.091185575        0.170249482        -59.0041544
         990000000       0.476773641         -132.86237         8.84078177         63.0510381       0.0280092366       -0.482978074        0.168688379        -59.2698683
             1e+09       0.474801177        -133.608049         8.79293808         62.2394086       0.0281800321       -0.874924791        0.167126348        -59.5381114
          1.01e+09       0.472826524        -134.345137         8.74259943         61.4537397       0.0283312357        -1.26468014        0.165561709        -59.7908676
          1.02e+09       0.470936161        -135.032682         8.67440143         60.8508009       0.0283434144        -1.63808965        0.163983603        -59.9192905
          1.03e+09        0.46903084        -135.718579         8.60625354         60.2477052       0.0283558257        -2.01165595        0.162401006         -60.049761
          1.04e+09       0.467110398        -136.402845         8.53815355         59.6444423       0.0283684681        -2.38538954        0.160813818        -60.1822991
          1.05e+09       0.465194437         -137.08489         8.47409399         59.0224124       0.0283743591        -2.77616143        0.159263724        -60.2770145
          1.06e+09       0.463395436        -137.761326          8.4368184         58.2758018       0.0283337491        -3.27994555        0.157985979        -60.1081827
          1.07e+09       0.461581092        -138.436285         8.39959602         57.5290147       0.0282933464        -3.78390608        0.156698867        -59.9440257
          1.08e+09       0.459751261        -139.109789          8.3624254         56.7820413       0.0282531482        -4.28805293        0.155402161        -59.7845628
          1.09e+09       0.457910253        -139.777396         8.32266395         56.0427934       0.0282363039        -4.77751432        0.154104281        -59.6698468
           1.1e+09       0.456082648        -140.415006         8.26602297         55.3541067       0.0283680341        -5.17181921        0.152855057        -59.8154682
          1.11e+09       0.454240261        -141.051214         8.20941942         54.6652225        0.028500013        -5.56632163        0.151601502        -59.9642634
          1.12e+09       0.452382966        -141.686034          8.1528515          53.976132       0.0286322415        -5.96103028        0.150343459        -60.1162777
          1.13e+09       0.450608788        -142.321107         8.09907699         53.2946397        0.028772363         -6.3260011        0.149076143        -60.2287214
          1.14e+09       0.449422421        -142.965099         8.06229521         52.6609675        0.028959703        -6.50715084        0.147776665        -60.0817616
          1.15e+09       0.448220906         -143.60827         8.02555968           52.02715       0.0291473274        -6.68844593        0.146474088        -59.9389226
          1.16e+09       0.447004139        -144.250652         7.98886927         51.3931786       0.0293352394        -6.86989485        0.145168228        -59.8003025
          1.17e+09       0.445662772        -144.890844         7.95245601         50.7478278       0.0294829591        -7.09670815        0.143946618        -59.6966172
          1.18e+09       0.443661617        -145.521554         7.91745624         50.0361099         0.02939218        -7.59028254        0.143235782        -59.7768397
          1.19e+09       0.441644624        -146.150967         7.88249019         49.3241186       0.0293015453        -8.08413028        0.142516289        -59.8596697
           1.2e+09        0.43961169        -146.779095          7.8475564         48.6118459       0.0292110502        -8.57825944        0.141788091        -59.9450612
          1.21e+09       0.437635594        -147.402891         7.81128308         47.9060877       0.0291474128        -9.03208261        0.141031664        -59.9999651
          1.22e+09       0.436056997        -148.008294         7.76727374         47.2386301       0.0292353902        -9.25611998        0.140157334        -59.8709934
          1.23e+09       0.434463281        -148.612823         7.72329192         46.5709419       0.0293235917        -9.48038796        0.139276341        -59.7456572
          1.24e+09       0.432854362          -149.2165         7.67933622         45.9030158       0.0294120168        -9.70489382         0.13838857        -59.6239686
          1.25e+09        0.43129068        -149.814848         7.63763457         45.2448337       0.0294995429        -9.97744633        0.137534589        -59.5076845
          1.26e+09       0.430042335        -150.388007         7.60811511         44.6408926        0.029581169        -10.5108097        0.136894101        -59.4051154
          1.27e+09       0.428779836        -150.960616         7.57862742         44.0367567       0.0296630092        -11.0443679         0.13624422        -59.3071298
          1.28e+09       0.427503113        -151.532699         7.54917058         43.4324195       0.0297450634        -11.5781275        0.135584775        -59.2137126
          1.29e+09       0.426172282        -152.098651         7.51869149          42.810103       0.0298349784        -12.0753214         0.13487333        -59.1354241
           1.3e+09       0.424618586        -152.634408         7.48271293         42.0942637       0.0299652533         -12.379677        0.133931543        -59.1172622
          1.31e+09       0.423051386        -153.169419         7.44675419         41.3781916       0.0300957423        -12.6842653        0.132982255        -59.1037723
          1.32e+09       0.421470623        -153.703699         7.41081421         40.6618814       0.0302264453        -12.9890918        0.132025347        -59.0949939
          1.33e+09       0.419917131        -154.244058         7.37636361         39.9747435       0.0303167342        -13.3090647        0.131181541        -59.0798838
          1.34e+09        0.41855625        -154.818285         7.34938304         39.4362242       0.0302015716        -13.7046983        0.130941283        -59.0109452
          1.35e+09       0.417180531         -155.39216         7.32242809          38.897458        0.030086512        -14.1005788        0.130692945        -58.9424111
          1.36e+09       0.415789917        -155.965709         7.29549781         38.3584387       0.0299715512        -14.4967124        0.130436554        -58.8742088
          1.37e+09       0.414335894        -156.532285         7.26854358         37.7965811       0.0298961845        -14.9075389        0.130074366         -58.822218
          1.38e+09       0.412630859        -157.065797         7.24137604         37.1242116       0.0300138215        -15.3891083         0.12922604        -58.8511142
          1.39e+09       0.410911759        -157.598668         7.21422451           36.45156       0.0301316576        -15.8709596        0.128368323        -58.8850052
           1.4e+09       0.409178546        -158.130913         7.18708802         35.7786214       0.0302496919         -16.353098        0.127501103        -58.9239129
          1.41e+09       0.407561173        -158.654392         7.15839327         35.1112649       0.0303498358        -16.7878071        0.126746776         -58.915181
          1.42e+09       0.406543705        -159.139111         7.12230043         34.4713694       0.0303648769        -16.9977753         0.12656021        -58.6605621
          1.43e+09       0.405514155        -159.623725         7.08622187         33.8312858       0.0303800638        -17.2079316        0.126363872         -58.406511
          1.44e+09       0.404472485        -160.108254         7.05015679         33.1910097       0.0303953954        -17.4182803        0.126157756        -58.1529361
          1.45e+09       0.403383537        -160.589462         7.01762351         32.5735401       0.0304286638        -17.7183742        0.125935074        -57.9497954
          1.46e+09       0.402122599        -161.055664         7.00113795         32.0606555       0.0305431548        -18.4266185        0.125670791        -57.9766399
          1.47e+09       0.400849798        -161.521622         6.98467096         31.5475534       0.0306578257        -19.1350801          0.1253951        -58.0065563
          1.48e+09       0.399565101        -161.987351         6.96822198         31.0342302       0.0307726761        -19.8437629        0.125107862        -58.0394701
          1.49e+09       0.398229758        -162.448374         6.95009951         30.4758917       0.0308749262        -20.5054947        0.124864943        -58.0272176
           1.5e+09       0.396712206        -162.889238          6.9245396         29.7199991       0.0309210223        -20.9596312        0.124854374        -57.8040117
          1.51e+09        0.39518321        -163.329641         6.89898747         28.9638649       0.0309672404        -21.4140093        0.124827619        -57.5802059
          1.52e+09       0.393642744        -163.769593         6.87344243         28.2074859       0.0310135788        -21.8686323        0.124784646         -57.355622
          1.53e+09       0.392183091        -164.217749         6.84919752         27.5029864       0.0310571711        -22.2294558        0.124728986        -57.2010075
          1.54e+09        0.39110491        -164.702691         6.83048057         27.0204788       0.0310886845        -22.1895763           0.124681        -57.3485207
          1.55e+09       0.390014313         -165.18783         6.81178037         26.5377429       0.0311203439        -22.1499251        0.124631511        -57.4963417
          1.56e+09       0.388911272        -165.673189         6.79309637         26.0547746       0.0311521483        -22.1105063        0.124580515        -57.6444659
          1.57e+09       0.387668962        -166.150597         6.77640087         25.5325023       0.0311757433        -22.2153489        0.124516164        -57.7335638
          1.58e+09       0.385891042        -166.593974         6.76786266         24.8486845       0.0311649543        -22.9150231        0.124391247         -57.577152
          1.59e+09       0.384101203         -167.03683         6.75933525         24.1645792       0.0311542324        -23.6149845        0.124247798        -57.4193743
           1.6e+09       0.382299432        -167.479172         6.75081803          23.480184       0.0311435751         -24.315236        0.124085828        -57.2600157
          1.61e+09       0.380724103         -167.92237         6.73608631         22.8072974       0.0311268351        -24.9625285        0.123943548        -57.1174115
          1.62e+09       0.380090986        -168.371158         6.69646506         22.1813927       0.0310856034         -25.397038        0.123941425        -57.0462028
          1.63e+09        0.37944693        -168.820522         6.65684867         21.5553093       0.0310444767        -25.8317261        0.123930747        -56.9715242
          1.64e+09       0.378791919        -169.270484         6.61723644         20.9290436       0.0310034535        -26.2665965        0.123911671        -56.8932899
          1.65e+09       0.377973915        -169.728038         6.58551238          20.322655       0.0310021019        -26.6298733        0.123987425        -56.8348496
          1.66e+09       0.376554265        -170.213035         6.58437838         19.7938231        0.031154363        -26.7150338        0.124457167        -56.8661371
          1.67e+09       0.375121796        -170.698309         6.58326346         19.2646998       0.0313068233        -26.8004859        0.124922764        -56.8979324
          1.68e+09       0.373676494        -171.183882         6.58216717         18.7352815       0.0314594823        -26.8862328        0.125384147        -56.9302197
          1.69e+09       0.372295161        -171.642758          6.5777226         18.1753052       0.0315753896        -27.0778928        0.125780604        -56.9243326
           1.7e+09       0.371192309        -172.000133         6.56062486         17.5012626       0.0315524116        -27.6670969        0.125938604        -56.7704663
          1.71e+09       0.370080497        -172.357533         6.54353332         16.8270322       0.0315294945        -28.2564888        0.126082445        -56.6119287
          1.72e+09       0.368959712        -172.714969         6.52644761          16.152612       0.0315066369        -28.8460704        0.126212282        -56.4485804
          1.73e+09       0.367877224        -173.092749          6.5077849         15.5110858        0.031468427        -29.3433929        0.126406211        -56.3408677
          1.74e+09       0.366957015        -173.545091         6.48335012          14.990145        0.031374001         -29.503378         0.12687799        -56.4515391
