!Keysight Technologies,P9374A
!Date: Tuesday, April 18, 2023 20:00:51
!Correction: S11(Full 2 Port(1,2)) 
!S21(Full 2 Port(1,2)) 
!S12(Full 2 Port(1,2)) 
!S22(Full 2 Port(1,2)) 
!S2P File: Measurements: S11, S21, S12, S22:
# Hz S  RI   R 50
10000000 1.0047619 -0.081981987 -0.00072111504 -0.00096645602 0.00039943506 0.00069288013 0.42254987 0.91070634
13327773.144287 1.0153955 -0.11914998 -0.00019798148 -0.0014093112 0.00078873738 -0.00079552515 0.032019388 0.97857076
16655546.288574 1.0216731 -0.15249759 -0.00054908264 3.2398224e-005 0.00052577897 0.0001538981 -0.32900387 0.91560411
19983319.432861 0.99540162 -0.16057467 -0.00026362651 -9.9350502e-005 0.0014740527 -0.00037201445 -0.64108127 0.75657344
23311092.577148 0.99120367 -0.1923891 -0.00093156501 0.00036911835 0.0018991728 0.00046446291 -0.89202708 0.47430271
26638865.721435 0.98012525 -0.22909917 -0.00032745759 -0.00068196526 0.0013946216 -0.00018485654 -1.0076685 0.12658069
29966638.865721 0.9709838 -0.24773717 -0.00059143384 -0.0005776856 -0.00070161565 -0.0014881797 -1.0055429 -0.23742592
33294412.010008 0.9581989 -0.28559306 0.0011366277 -0.00036565878 0.0015493409 0.00055628526 -0.84741557 -0.58846223
36622185.154295 0.94999361 -0.31491378 -0.00088330201 0.0016068334 -0.00023377207 -0.0002551135 -0.57970273 -0.85744166
39949958.298582 0.93917233 -0.33676937 0.00047997496 0.001021949 0.00063786289 0.0015682735 -0.23831868 -1.0156999
43277731.442869 0.92800772 -0.36531353 -0.0013228254 0.001260489 -0.0011178131 0.00079221331 0.15429576 -1.0318791
46605504.587156 0.91863084 -0.39220962 1.8523493e-005 -0.00084082905 -0.00032513557 0.0011579953 0.51679587 -0.90376085
49933277.731443 0.90562594 -0.42043906 0.0010392568 -0.0017057727 0.00053369626 0.00073030376 0.81151909 -0.65643293
53261050.87573 0.89667207 -0.43876475 0.0011694739 -0.00084796862 0.00037447157 -0.0012598668 0.99576104 -0.30814147
56588824.020017 0.88523799 -0.46541405 -0.0011605173 0.0020730507 0.0002299388 -0.00037378434 1.0375867 0.080254711
59916597.164304 0.86843759 -0.49201477 -0.00034379441 0.00076649862 -0.0010735482 0.0004142684 0.93757856 0.45460925
63244370.30859 0.85473931 -0.51631182 0.00039154175 -0.00022163695 0.00020550496 0.001409828 0.70563591 0.76064998
66572143.452877 0.83935696 -0.54182911 -0.00012212971 0.0013732511 0.00061742601 -0.0008652549 0.37636846 0.96505016
69899916.597164 0.82275957 -0.56433553 0.00088307809 -1.062402e-006 0.00025033404 0.00081268162 -0.0043135351 1.0385678
73227689.741451 0.81040579 -0.58943385 -0.0012929011 0.00010059254 -0.00074009021 0.00078610034 -0.38631412 0.96824539
76555462.885738 0.79172534 -0.6168651 -0.00060881017 0.00013419677 -0.00032689233 -0.00084557105 -0.71927679 0.76564938
79883236.030025 0.76923299 -0.6425994 -0.00055316743 -0.00065916334 -0.00094157521 0.00084366376 -0.94519597 0.45467153
83211009.174312 0.74807048 -0.65492874 0.00055517873 0.00086473598 -0.00081981759 -0.0016042608 -1.0468395 0.081387825
86538782.318599 0.72732753 -0.67481065 -0.00071550021 0.00090845948 -0.00097489241 0.00077840418 -1.0076905 -0.30394569
89866555.462886 0.70928389 -0.69523466 -0.00074798724 -0.0021197801 -0.0006199085 0.00039070746 -0.83240855 -0.64915353
93194328.607173 0.68516356 -0.72175521 -0.0013671413 0.0006578808 0.0002235366 0.00051453046 -0.54389864 -0.91049641
96522101.75146 0.66449594 -0.74049461 0.00011490423 0.00094976398 -0.00072914921 -0.001339054 -0.18058477 -1.0467294
99849874.895746 0.64130574 -0.76073629 0.00017441149 0.00013547088 -0.00012492346 -0.0006299814 0.21028095 -1.0406495
103177648.04003 0.61973876 -0.77712041 0.00047507553 0.00097779825 0.00079963147 -6.5954591e-005 0.57944316 -0.89144403
106505421.18432 0.59842575 -0.79621124 -0.00036838098 4.3265871e-005 -0.0010862908 -5.3009626e-005 0.86488193 -0.62143683
109833194.32861 0.57696205 -0.80855268 0.00036929798 -0.00044602822 0.00032757691 -1.5062068e-005 1.0317512 -0.2664296
113160967.47289 0.55643904 -0.82339853 -0.00085950771 -0.0011827264 -0.00092349265 0.0010061443 1.0498114 0.12933849
116488740.61718 0.53325897 -0.8436718 0.0019819713 0.00063119555 -0.00090240146 -0.0014693057 0.92866373 0.50820011
119816513.76147 0.51340783 -0.86090362 -0.0013223303 0.0010887543 -0.00023631178 -0.0015469927 0.67697442 0.81276625
123144286.90575 0.47979707 -0.86699206 0.0003906746 0.00062411913 -0.00030526903 0.0010486235 0.32933065 1.0055466
126472060.05004 0.45070237 -0.88432294 0.00096066343 0.00014815867 -0.00049940223 -0.00025560055 -0.059272442 1.0582397
129799833.19433 0.42338139 -0.8989076 -0.00024581776 0.00052856508 0.00029768239 0.00022150736 -0.44222063 0.96666926
133127606.33862 0.39655048 -0.91081679 -0.00034365093 -0.00022620495 0.00056091044 1.4382238e-005 -0.75959694 0.73959291
136455379.4829 0.36593264 -0.91640878 0.00059432321 0.0013675231 0.0005411657 1.305954e-005 -0.97852659 0.41709313
139783152.62719 0.33554229 -0.92721814 -0.0013984994 -0.00060518488 0.0014902611 0.0012443155 -1.0667031 0.037152898
143110925.77148 0.31296521 -0.93914932 -0.0015141384 0.00012163876 3.8290864e-006 0.0007009274 -1.011718 -0.34771094
146438698.91576 0.28216627 -0.94596404 -0.0002879985 0.00052225171 0.00018211154 0.00081273349 -0.82405221 -0.69031119
149766472.06005 0.25433576 -0.95232737 4.9270329e-005 -0.00068353181 1.2906974e-005 -0.000682185 -0.52413315 -0.93778712
153094245.20434 0.2238601 -0.96352732 -0.00038365991 -0.00055593409 -0.00053548126 -0.00084352784 -0.14578442 -1.0643518
156422018.34862 0.1912033 -0.96835029 -0.00037499354 0.00026602735 -0.0010391566 -0.00010638674 0.24797001 -1.0461459
159749791.49291 0.16054919 -0.97576118 -0.0007237661 -0.00069921184 0.00030824583 0.00015196063 0.61667836 -0.88606274
163077564.6372 0.12852828 -0.9799251 -0.00069594849 0.0005951171 -8.8480374e-005 -0.00046816631 0.8914395 -0.59895605
166405337.78148 0.10147018 -0.98072577 -0.00052594568 0.00064211275 -0.001083483 0.00072220585 1.0464021 -0.22961178
169733110.92577 0.070357524 -0.98091292 -0.00040778512 -0.00067033659 0.00045410616 0.00034583567 1.0567536 0.17081764
173060884.07006 0.04006603 -0.98253077 0.00024878184 8.2459948e-005 -0.001608727 0.0006106848 0.91695327 0.54849803
176388657.21435 0.010893358 -0.98590589 -0.0013074279 0.0014738659 0.00023011921 -0.0005618335 0.65286344 0.84811521
179716430.35863 -0.019757824 -0.98777759 -0.00073286862 -0.00059333444 1.3812391e-005 0.00044520572 0.29507595 1.0309982
183044203.50292 -0.049483296 -0.98386234 -0.00041365193 0.00031072545 -0.0013200827 0.00020508697 -0.10251176 1.0683303
186371976.64721 -0.078521743 -0.98085439 -0.0003673012 0.00081287848 -4.2680222e-005 -0.0020068372 -0.48447222 0.95649248
189699749.79149 -0.11383891 -0.97804284 0.00091565301 -0.0015258319 -0.00070344872 0.00043538885 -0.80060524 0.71758437
193027522.93578 -0.14025155 -0.97333622 0.0008510208 0.00096795312 0.00071966677 -0.0010596627 -1.0109205 0.37827879
196355296.08007 -0.17313184 -0.96746212 -0.00067571987 -0.0016763444 0.00088527397 0.00042904136 -1.0829804 -0.013843051
199683069.22435 -0.20415007 -0.95995587 -0.00024320882 -2.7803642e-005 -0.0010250794 0.00016502317 -1.0076481 -0.40155044
203010842.36864 -0.23651583 -0.95305836 -0.0018391859 0.0015571561 0.0013354426 -0.00038870148 -0.79438591 -0.73350269
206338615.51293 -0.26906392 -0.94506872 0.00023570657 -0.00035280763 0.00051218952 -0.0014965931 -0.47721907 -0.97024721
209666388.65721 -0.29810372 -0.93313378 -0.00076264038 0.00083071884 0.0006839683 -0.00039604277 -0.098831467 -1.0784333
212994161.8015 -0.32843786 -0.92402446 0.00026930921 1.3542537e-005 -1.0849745e-005 -0.00026175228 0.29943001 -1.0430701
216321934.94579 -0.35734689 -0.90947729 0.00011925448 0.0012470869 0.00094455073 -0.00099680177 0.65693843 -0.86147892
219649708.09008 -0.38814631 -0.89742005 0.0014010186 -0.00010494667 0.0014011406 -3.8996961e-005 0.92841727 -0.56097281
222977481.23436 -0.41842976 -0.88602012 -0.0017331404 0.0013394679 -0.00043394847 -0.00013678515 1.071413 -0.17869854
226305254.37865 -0.44582239 -0.86976397 0.00042278273 0.00023152624 -0.00027828934 -4.1498544e-005 1.058135 0.2262813
229633027.52294 -0.47568348 -0.85140723 -0.00039923587 0.00081442937 0.0018825266 -0.00073217659 0.90244651 0.60310203
232960800.66722 -0.50276244 -0.83195925 -0.00077350496 0.00095700193 0.00072738802 0.00066380383 0.61495197 0.89010477
236288573.81151 -0.52812171 -0.81735969 -0.00099911506 0.0011351943 -0.0013256001 -0.0002491177 0.24868593 1.054455
239616346.9558 -0.55492628 -0.79947484 0.0010376441 0.00013619548 0.0013167175 0.0015484906 -0.15395533 1.0733981
242944120.10008 -0.5838716 -0.77993673 0.00019605053 -0.0012946194 0.00095767144 -0.0018210072 -0.53566122 0.94351524
246271893.24437 -0.61252791 -0.75684506 -0.00011873272 0.00042374132 -0.00043164261 0.00010761096 -0.8436619 0.68715054
249599666.38866 -0.63853961 -0.73363024 -0.0010688131 0.0014686913 -5.9507161e-006 -0.00073115219 -1.0395408 0.33648106
252927439.53294 -0.66534191 -0.71077275 -0.00045639981 -0.00052779383 -0.00032144695 8.408766e-005 -1.0898356 -0.057446975
256255212.67723 -0.68998629 -0.68262762 -0.00097082037 -0.0009113251 -0.00077066955 -0.00034140318 -0.99892789 -0.44556564
259582985.82152 -0.71690273 -0.65474284 -0.00022803749 0.0012309909 0.00023385943 2.1713482e-005 -0.7736845 -0.77508587
262910758.9658 -0.73748642 -0.62907267 0.00013596482 -0.00043765458 0.00015097462 -0.00012320481 -0.44614831 -1.0014135
266238532.11009 -0.75980508 -0.59922993 -0.0014970191 0.00012542011 -0.00053200766 -0.00034568089 -0.056303676 -1.0957609
269566305.25438 -0.78193718 -0.57037288 0.00072325912 -0.00016680834 -0.0011588658 -0.0015064152 0.34414625 -1.0443897
272894078.39867 -0.80215836 -0.53892553 -0.00013117646 0.0014536255 0.00016849178 0.0012024924 0.69533962 -0.84478819
276221851.54295 -0.81776589 -0.50917095 -0.0004133629 -0.00068245357 -0.00059667649 -0.00024949366 0.95585436 -0.5327087
279549624.68724 -0.8358199 -0.47736299 0.00032171176 0.00012889877 -0.0014092729 -0.0009243727 1.0807521 -0.14073224
282877397.83153 -0.85289472 -0.44354481 -3.885159e-006 -0.00085769146 -0.0022665327 0.0005180054 1.0580946 0.26637617
286205170.97581 -0.86777639 -0.40759921 -0.00082653604 0.00042794208 0.0017592345 0.00062479544 0.88600266 0.64155453
289532944.1201 -0.87997675 -0.37346482 0.00064013281 -0.0001337078 -0.0013958816 0.001312786 0.58733594 0.92360449
292860717.26439 -0.88971359 -0.33382583 -0.0014147211 -0.00077625841 0.00065977854 0.0014792107 0.20476085 1.074017
296188490.40867 -0.9019748 -0.29442865 -0.00022258596 0.00077778095 0.00052158791 -0.0014996818 -0.20325026 1.0774082
299516263.55296 -0.91050625 -0.2551367 -0.00031017474 -0.0013967099 -0.00040234195 -0.000301647 -0.57989079 0.93018717
302844036.69725 -0.9173032 -0.2150448 -0.0013525838 -0.00052420853 -0.00015033659 -0.00030953801 -0.88037723 0.65808737
306171809.84153 -0.91786504 -0.17835993 0.0011567097 0.0012083664 -0.00074410968 -0.0011195026 -1.0608586 0.29916969
309499582.98582 -0.92347091 -0.14463562 -0.00070629129 0.0013694565 -0.00085253525 0.00057021773 -1.0979493 -0.10531432
312827356.13011 -0.92958164 -0.10691341 0.0020526911 -0.000329862 -0.00039202636 -0.00034751551 -0.98475975 -0.49162921
316155129.2744 -0.92997909 -0.06356816 -0.00039479384 -0.00031376127 -0.00060288713 -0.00065163226 -0.7490297 -0.81439191
319482902.41868 -0.9327606 -0.025558153 0.0015646016 0.00019196434 -1.9689471e-005 -0.00036307756 -0.41113296 -1.0320624
322810675.56297 -0.93351299 0.017657124 -0.0001139388 -0.00047370893 -0.00054086366 0.00055865338 -0.010727741 -1.1124141
326138448.70726 -0.93061996 0.060040772 -0.00018607159 0.00022322031 0.00044829576 0.0010606778 0.38812387 -1.040447
329466221.85154 -0.92301983 0.10583489 0.00057102583 0.00098800601 -0.00097721443 0.00015961201 0.73763502 -0.82839698
332793994.99583 -0.91633147 0.15170713 0.00019329732 0.00079432904 -0.00097587344 -0.00076609413 0.987526 -0.50045657
336121768.14012 -0.90198433 0.1975674 0.00087881903 -0.00018470665 0.00096154446 0.00094090903 1.0959301 -0.10459124
339449541.2844 -0.88915014 0.23971966 0.00035087639 -0.00057623279 0.00024084398 -0.00076104142 1.0560186 0.30686557
342777314.42869 -0.87080193 0.28475004 0.00038559368 -0.00056198402 -0.00063573441 -0.00097696658 0.87118149 0.6766153
346105087.57298 -0.85253537 0.32305092 -0.00065798021 -0.0016751788 0.0014125955 0.00081867905 0.55854058 0.94966251
349432860.71726 -0.83018088 0.3651486 0.0013206284 -1.6770193e-005 0.00041327931 -6.8203779e-005 0.16998389 1.0914363
352760633.86155 -0.80617255 0.40951189 -9.8189521e-005 -0.00035557695 -0.00019564398 -0.00070720544 -0.24243265 1.0770066
356088407.00584 -0.77823955 0.44992414 -0.00018361899 0.00031236015 -0.00038772271 -0.00085471047 -0.62478936 0.91252053
359416180.15013 -0.74631417 0.48749232 -6.7754692e-005 -0.00076695887 -0.00049513258 -0.00035285056 -0.91728222 0.62906188
362743953.29441 -0.71565765 0.5266881 -0.00038397938 -0.00018000898 0.00086836505 -0.00032959715 -1.0798151 0.25413457
366071726.4387 -0.680502 0.56253392 0.0005662308 -0.0011607708 -0.00053870445 -0.0011335418 -1.1045147 -0.14995955
369399499.58299 -0.64402676 0.5948413 0.00016190711 -0.0001214565 -0.00027768718 -0.00061406725 -0.98244554 -0.53645164
372727272.72727 -0.60929978 0.62939978 0.0001377342 0.00023142571 -0.00017868815 9.4071656e-005 -0.72561121 -0.85058528
376055045.87156 -0.57095206 0.66555548 5.8903133e-005 0.00034667552 0.00018650797 -0.0011061556 -0.37367505 -1.0564653
379382819.01585 -0.52291012 0.70009178 -0.00019873794 -0.0005317661 -0.00043654157 0.00066373096 0.031555694 -1.1216625
382710592.16013 -0.47707599 0.73004729 -0.00043543428 0.00022782866 0.00040602355 0.00062232302 0.43525118 -1.031816
386038365.30442 -0.4182052 0.75487298 0.00030032705 -0.0018075788 0.00021095673 0.00025901946 0.77508265 -0.80011463
389366138.44871 -0.3604067 0.77248502 -0.00059523736 0.00091682747 -0.00054665527 0.00028985835 1.0127497 -0.46425867
392693911.59299 -0.30308935 0.78049904 -0.00095600536 -0.00062542182 0.00051504275 0.00027346154 1.1117892 -0.056258492
396021684.73728 -0.24927804 0.78674698 0.00039971818 0.00061444042 0.00067923486 4.4134511e-005 1.0572404 0.35445601
399349457.88157 -0.1983272 0.78794545 0.00097502396 -0.00070870278 0.00038987686 -0.00024209781 0.84972256 0.71967447
402677231.02585 -0.14833316 0.79145026 -0.00046843986 0.0009863578 -0.0002632071 -0.00074199168 0.52709937 0.98075056
406005004.17014 -0.095253982 0.78976589 -0.00090137363 -0.00026309176 -0.0010240326 0.00031091372 0.12780096 1.1079754
409332777.31443 -0.036621243 0.79287332 -0.0016277363 -0.00051497453 -0.0010341349 -0.00032422596 -0.28374767 1.0753193
412660550.45872 0.019747015 0.78961128 0.00047799133 0.0013782235 -0.0011599147 0.00044906433 -0.66037172 0.90230012
415988323.603 0.07815329 0.78145325 -0.00036834413 6.0625956e-005 -0.0006845899 -8.4450163e-005 -0.94549268 0.59594208
419316096.74729 0.13689195 0.76930219 -0.00025290207 4.1923031e-005 -0.0014870262 -0.0004068031 -1.099108 0.21265817
422643869.89158 0.19457354 0.75354034 -0.00058218982 0.00046182278 -0.00096063898 -0.00098275254 -1.1076976 -0.19887224
425971643.03586 0.25004992 0.73424768 -3.7910017e-005 -0.0010046343 -0.00039440807 -0.0007497163 -0.96651399 -0.58577013
429299416.18015 0.30629924 0.71293294 -0.00030344518 -0.0011367755 0.00020411887 0.00010345224 -0.69445169 -0.89411396
432627189.32444 0.36616218 0.68009633 -0.00060449686 -7.958171e-005 0.00036188297 -0.0015851667 -0.3253547 -1.0818572
435954962.46872 0.42145202 0.64260596 0.0001708691 -0.0017907778 0.00017215536 7.4082927e-005 0.082342416 -1.1211149
439282735.61301 0.47444025 0.60208112 1.4178665e-005 0.00022410076 0.00072107749 0.00029468143 0.47893718 -1.0182643
442610508.7573 0.51765317 0.55313623 0.00028703682 0.00046648449 3.0686413e-005 0.00082987675 0.81432498 -0.7730751
445938281.90158 0.55801928 0.50445837 0.0010630861 -0.00059685507 0.00049546966 -0.00061062176 1.0390275 -0.42303464
449266055.04587 0.5966776 0.45071512 0.00030029303 -0.00059010199 0.00050671631 0.00032027441 1.1209468 -0.013042381
452593828.19016 0.63267535 0.39360836 0.00069854024 2.1726715e-005 7.9558558e-005 0.00027431344 1.0467588 0.40131021
455921601.33445 0.66428429 0.33371174 -0.00020254553 -6.8101261e-005 0.00060151715 0.0011450008 0.82806069 0.75971907
459249374.47873 0.69059247 0.27448604 -0.00013458122 0.0008946443 0.00081657909 0.00014836763 0.48491189 1.0077382
462577147.62302 0.71074998 0.20823424 0.0011229898 0.0013342481 -0.00064731209 -0.00022284398 0.082231238 1.1165659
465904920.76731 0.72582048 0.14005803 0.00013686124 0.0007795603 0.00092166412 0.0012684803 -0.33420318 1.0693405
469232693.91159 0.73567384 0.070505343 0.00048639474 0.00063450495 0.00096554891 0.00056892924 -0.70138574 0.87430811
472560467.05588 0.73607111 0.0047501582 0.00035397016 0.0017525359 0.00048510297 -0.0015064783 -0.97562754 0.56523991
475888240.20017 0.73552096 -0.063084818 -0.0013825237 0.00027243924 0.00012254101 -0.00071453443 -1.1197778 0.17371511
479216013.34445 0.7235744 -0.1277858 0.00068945053 0.00099744543 0.00075254968 -0.00020140522 -1.1107731 -0.24350861
482543786.48874 0.70907873 -0.19216835 -0.00094461587 0.0011076691 -0.0011624395 -0.00076860248 -0.94607937 -0.62675345
485871559.63303 0.68742275 -0.255335 0.0002392981 0.00064827088 0.0011179922 0.0011556058 -0.66395128 -0.92206365
489199332.77731 0.65837908 -0.31396651 -0.00076770241 0.00085901981 -0.0010776375 -0.0010986581 -0.28870955 -1.0975519
492527105.9216 0.62890321 -0.37021357 0.00017886992 -0.00056192832 0.0016036099 -0.00013124915 0.12550472 -1.1263224
495854879.06589 0.59040636 -0.42398629 0.00035555058 0.0017964249 0.00072513433 -0.00026774468 0.52129185 -1.0041534
499182652.21018 0.54376942 -0.47112006 -0.00026956535 -0.0014630919 -0.00056449382 -0.0011008675 0.85139668 -0.74854881
502510425.35446 0.50075728 -0.5080626 -0.00093635835 -0.0014925558 0.00021999031 0.001445747 1.0630405 -0.38554642
505838198.49875 0.45475742 -0.54373497 -0.0011072116 0.00041039847 -0.001597703 0.00093255338 1.1247958 0.02819393
509165971.64304 0.41269115 -0.57628471 0.00043004093 0.00020475152 0.00020640674 -0.00048670763 1.0393994 0.43826172
512493744.78732 0.36687925 -0.6059891 -2.921874e-005 0.0007444527 -0.000292349 -0.0010492933 0.80361092 0.79132509
515821517.93161 0.31948408 -0.62796897 0.00034740983 -0.00031760414 -0.0022229266 -8.576634e-005 0.45403108 1.0346867
519149291.0759 0.27255598 -0.65090352 -0.0010956309 0.0013307034 0.00055117114 -0.00098774163 0.044540983 1.1299556
522477064.22018 0.22413053 -0.66535926 0.0012129501 -0.0010190815 0.0014571722 -0.0014628918 -0.37529275 1.0694233
525804837.36447 0.17477517 -0.67824513 -0.00086057145 -0.0020475108 -0.00065229757 -0.00027472305 -0.73917395 0.85863143
529132610.50876 0.13259828 -0.68452269 -0.00057523558 -0.00015400321 -0.001121026 -0.0014139395 -1.0036304 0.53462774
532460383.65304 0.088526055 -0.68360233 9.1426155e-005 -0.00049562473 -0.0021016903 0.00044585174 -1.132249 0.13248017
535788156.79733 0.042247921 -0.68450087 -0.00032073079 0.00010983947 0.0010873793 -0.0008727439 -1.1080171 -0.28593761
539115929.94162 0.00057622697 -0.6795091 -0.00071865204 0.00029674629 -3.8026992e-005 0.0011265443 -0.93152153 -0.66505915
542443703.0859 -0.031610541 -0.67265242 0.00098489714 0.00051601743 0.00022860829 0.0010830264 -0.63025331 -0.95814937
545771476.23019 -0.065831035 -0.67411381 0.001155666 -0.00098821754 -0.00029111234 0.00018607084 -0.24246947 -1.115572
549099249.37448 -0.099393956 -0.67398888 -0.0005419018 0.00054969429 -0.0013385065 -0.0014449161 0.17103197 -1.1300199
552427022.51877 -0.13434872 -0.67489523 -0.00059561414 0.0011808574 -0.00099642912 -0.00020938538 0.56663221 -0.99023312
555754795.66305 -0.17337909 -0.67648971 -0.00012640475 -0.00021364866 -4.80653e-005 0.00059273891 0.88303488 -0.71668833
