! Created Tue Sep 16 19:43:14 2008
# hz S ma R 50
! 3 Port Network Data from SP1.SP block
! freq  magS11  angS11  magS12  angS12  magS13  angS13  
!       magS21  angS21  
!       magS22  angS22  magS23  angS23  
!       magS31  angS31  magS32  angS32  
!       magS33  angS33  
!     
          10000000      0.0769889127         -0.6791887    1.01439422e-005        -143.858942        0.920164951       -0.226862868
                  2.43109229e-006        -85.7270904        0.147559111      -0.0519344943    6.65471402e-006         72.8250946
                      0.920181096       -0.220600868    6.11006597e-006         45.1923193       0.0800511784       -0.674757224

          15000000      0.0770496281        -1.05632688    5.22721487e-006         78.4962587        0.920186702       -0.339014082
                  1.86516479e-006         170.970608        0.147461645      -0.0641997684    1.89958608e-005         85.0283673
                      0.920234217       -0.337276082     6.7196112e-006         91.1408086       0.0800389089       -0.963618652

          20000000      0.0771522625        -1.42817347    7.83749614e-006         24.9756141        0.920198962       -0.447695661
                  3.90992135e-006         68.2289359        0.147699406      -0.0870674005    1.64367156e-005          81.045855
                      0.920412343       -0.444154661    1.95301232e-005         96.8843659       0.0801991042        -1.16316968

          25000000       0.077182378        -1.69104407    2.24520606e-006        -145.517206        0.920258432       -0.562840249
                  5.01244742e-006        -46.3032632        0.147664338      -0.0564103491    2.36695826e-005         76.3390292
                      0.920456864       -0.562213248    2.20263399e-005         96.4749436       0.0802884818        -1.51065371

          30000000       0.077039975        -2.36229794    1.79520583e-006         63.4578289        0.920317674       -0.676830133
                  4.61512549e-006        -56.7842475        0.147582475     0.000300497617    2.40672471e-005         87.2050824
                      0.920395025       -0.677418133    2.36256813e-005          86.691938       0.0805171223        -1.66268336

          35000000      0.0770489961        -2.84274204    6.26292971e-006        -59.7857172        0.920268445       -0.796071651
                  1.85829697e-006        -55.7060351        0.147580479      0.00711929784    2.77241932e-005         87.3381906
                      0.920394682       -0.795502651    2.14028518e-005         99.1857984       0.0804575541        -1.83029651

          40000000      0.0769096119        -3.34034576    9.79893255e-006        -63.4164152        0.920252134       -0.909581737
                  5.45765901e-006        -95.4484198        0.147398703       0.0178565001    2.92822866e-005         88.0868663
                      0.920415117       -0.913235737    2.64870032e-005         90.5803057       0.0806860872        -2.05151259

          45000000      0.0770169477        -3.74185721    1.40993874e-006         159.456409        0.920258437        -1.02627287
                  4.37822676e-006        -151.296618        0.147386388       0.0226288534    2.89267331e-005          91.837458
                      0.920514487        -1.02916387    4.31097769e-005         90.1300423       0.0806122755        -2.39484206

          50000000      0.0771967293        -4.02276499    6.45073942e-006         174.858006        0.920377503        -1.13823365
                  4.86119191e-006        -99.3580559        0.147476127     -0.00471064635    3.83652016e-005         94.5289543
                      0.920668013        -1.14151665    4.07178508e-005           93.98379       0.0805001563        -2.67697516

          55000000      0.0772269358        -4.36475119    1.28145782e-005        -88.5365547        0.920222642        -1.25130586
                  1.44072621e-005        -81.8155631        0.147459866        0.012211718    4.52598644e-005         83.6728241
                      0.920564896        -1.25277286     4.4216492e-005         86.9522195       0.0804031103        -2.89244628

          60000000      0.0771369811        -4.70215087     2.9914469e-006        -94.1184044        0.920341753        -1.36627088
                  6.22407014e-006        -87.1692555        0.147434753       0.0903353965    4.49870815e-005         90.5804897
                      0.920626677        -1.37021388    5.18659343e-005         84.2396275       0.0804715859        -3.24151267

          65000000      0.0772919623        -5.09208232    2.58558658e-006         -26.568338        0.920234306        -1.48746523
                  1.33687943e-005        -131.277456        0.147332213        0.133992159    5.10205181e-005          89.417678
                      0.920514978        -1.49112223    5.06205221e-005         92.5290765       0.0802928132        -3.57229022

          70000000      0.0772236438        -5.37665557    6.85138867e-006        -88.4226929        0.920106856        -1.59944551
                  1.16498852e-005        -57.2734125        0.147279363        0.111271148    5.70638028e-005         94.9499458
                      0.920364262        -1.60088851    5.12284539e-005         90.8373844        0.080223573        -3.82253739

          75000000      0.0773452227        -5.83872372    1.02939393e-005        -72.9480399         0.92011723         -1.7124065
                  1.02700449e-005        -88.5246798         0.14724875        0.155609052    6.09736211e-005         92.3315755
                      0.920354104         -1.7153775    5.82336354e-005         89.0084942       0.0803423858        -4.06262692

          80000000      0.0775356654        -6.16481811    9.57219465e-006        -108.205513        0.920100986        -1.82550358
                   6.6622834e-006        -102.513372        0.147320493        0.180422327    6.32762976e-005          90.098421
                      0.920303092        -1.82440258    6.40375248e-005         90.5162991       0.0803531971        -4.30249001

          85000000      0.0774874794        -6.43171382    7.34252093e-006        -178.642812        0.920161976        -1.93949743
                  7.07705014e-006         -161.75986         0.14736532        0.182110839    6.92892927e-005         95.7886126
                      0.920344047        -1.93917943     7.2023254e-005         93.7229385       0.0805590844         -4.6490801

          90000000      0.0778447306        -6.78262781    5.90043699e-006        -84.6097848        0.920099269        -2.05403604
                  5.88756389e-006        -54.4171441        0.147384855        0.157407256    7.02620391e-005          85.731736
                      0.920329961        -2.05133604    7.77880616e-005         85.8210848       0.0804438418        -4.84525499

          95000000      0.0778025356        -7.22310153    8.50140083e-006        -64.9423733        0.920044784        -2.16892152
                  8.43580362e-006        -83.2263317         0.14745318        0.172590638    7.26561383e-005          87.787944
                      0.920285751        -2.16950152    7.14109136e-005         89.0282885       0.0805712193        -5.09654051

         100000000      0.0779558414        -7.55774883    9.97649732e-006        -101.547309        0.919997016        -2.28277815
                  1.10218529e-005        -164.096039        0.147621781         0.17717543    7.78432147e-005         90.0553992
                      0.920328378        -2.28379815    8.08184248e-005         89.5770568       0.0805250454        -5.34129783

         105000000      0.0779714283          -7.798125    1.00636046e-005        -91.2016643        0.919961105        -2.39837292
                  8.52225154e-006        -83.9898968        0.147626604        0.181262686    8.35533244e-005         85.6319258
                      0.920294382        -2.40044292    8.60876854e-005         90.3434731       0.0805089604        -5.72759435

         110000000      0.0780127463        -8.13161037    1.11396834e-005        -78.4047904        0.919871092         -2.5133865
                  8.21380604e-006        -93.0794381        0.147639103        0.174680268    8.67006582e-005         88.2187243
                      0.920190374         -2.5164465    8.94591884e-005         85.7940639        0.080331534        -6.05080629

         115000000      0.0781182418        -8.38861927    1.01000224e-005        -77.3735919        0.919855795         -2.6277165
                  1.33315731e-005        -87.4650206          0.1477285        0.166907945    8.48806537e-005         90.5179208
                      0.920163779         -2.6271065    8.96064702e-005          90.452373       0.0803222832         -6.3636651

         120000000       0.078174409        -8.56519277    1.52771748e-005        -93.3605974        0.919862207        -2.74505123
                  1.15218222e-005        -85.6793269        0.147767122        0.180657579    8.59920826e-005         84.2571004
                      0.920166083        -2.74355123    9.40408311e-005         88.8407015       0.0802992365        -6.72294288

         125000000      0.0782767481        -8.84528907    1.57935955e-005        -107.642502        0.919884696        -2.86419124
                  8.51309581e-006        -99.9998178        0.147858264        0.151237129    9.59686104e-005         88.8320177
                      0.920155409        -2.86199124    9.91251422e-005         88.2483175       0.0803755828        -6.88398216

         130000000      0.0782144144        -9.15234125    1.34860198e-005        -96.9109357        0.919847361        -2.97387666
                  1.32234285e-005        -106.290077        0.147975847         0.16364479     9.3823326e-005         87.1108768
                       0.92002829        -2.96896666     0.000101598012         90.7897886        0.080302564         -7.1734671

         135000000      0.0785815931        -9.57045778    1.12133867e-005        -115.490867         0.91988507        -3.09187528
                  1.49230296e-005        -104.924686        0.148025519        0.189251231     0.000108677364         93.6513443
                      0.920102096        -3.08672528    9.90831398e-005         92.7457318       0.0803091063        -7.36254045

         140000000      0.0786060034        -9.83363664    1.74879666e-005         -133.79824        0.919853916        -3.21049167
                  1.47868878e-005         -126.76433        0.148133526        0.197554731     0.000107283273         87.9078848
                      0.920032855        -3.20797167     0.000105657703         92.5308068       0.0802388638        -7.77855141

         145000000      0.0787993411        -10.2120529    1.82728456e-005        -152.872356        0.919921287        -3.33091696
                  1.33045101e-005        -140.073665        0.148184194        0.191809286     0.000116100016         90.8424622
                      0.920071257        -3.32887696     0.000113390153          91.169148       0.0802407889        -8.02489356

         150000000       0.079086641        -10.6505033    1.30366867e-005         -169.84242        0.919855445        -3.44465169
                  1.03246161e-005        -141.395919        0.148185191        0.229552425     0.000111864117          85.848997
                      0.920002353        -3.44410169      0.00012377482         89.9130014       0.0800278692        -8.22396524

         155000000       0.079114628        -11.2016874    1.35742556e-005        -99.7597227         0.91961541        -3.55930682
                  1.40789191e-005        -131.951173        0.148215674         0.23729028     0.000121772009         88.5625192
                      0.919789156        -3.55943682     0.000121845974         89.1032074       0.0798202082        -8.57672148

         160000000      0.0795552038        -11.5492276    1.08238386e-005        -143.267111        0.919533039        -3.67476824
                  1.72801779e-005        -135.751361        0.148158325        0.231932218       0.0001277706         89.9298592
                      0.919737964        -3.67276824     0.000124439581         89.6071565       0.0796369823        -8.91430675

         165000000      0.0797239428        -12.0310292    1.09229511e-005        -152.674028         0.91967011        -3.78830111
                  1.58993276e-005         -145.01433        0.148065605        0.182679251     0.000130951577           88.19718
                      0.919863904        -3.78202111     0.000129003536         89.6389696       0.0794801741        -9.21259929

         170000000      0.0801910569        -12.4182918    1.09671208e-005        -123.853836        0.919784318        -3.90375155
                  1.40852662e-005         -93.400673        0.148103274        0.153798855     0.000136867834         85.9321587
                      0.920046972        -3.89597155     0.000135771192          88.675745       0.0792145377        -9.59449635

         175000000      0.0804335763        -12.8747975    1.10096921e-005        -128.110587        0.919844997        -4.01800053
                  1.44055649e-005         -119.21072        0.148029238        0.119652976     0.000136958486         87.8738589
                      0.920125795        -4.01014053     0.000134004429         87.2878385       0.0791370089        -9.96986126

         180000000      0.0807083047        -13.2453652    2.20947548e-005        -117.669176        0.919660767        -4.12705089
                  1.69190708e-005         -133.87632        0.147933037       0.0783811722     0.000137822308         89.2054272
                      0.919911387        -4.11625089     0.000138058735         86.3889873       0.0787778937        -10.3521819

         185000000      0.0809910985        -13.5938776    1.28934586e-005        -87.2569317        0.919401927        -4.23312829
                  1.71769764e-005        -117.872012        0.147853754       0.0519073397     0.000143146594         87.8563766
                      0.919673546        -4.22397829     0.000144554996         89.6851627        0.078661933        -10.7035295

         190000000      0.0814990467        -14.0153002    1.58314097e-005        -123.930514        0.919397485        -4.35007202
                  1.65326775e-005        -112.886751        0.147844893      -0.0143035609     0.000142649404         88.7459211
                      0.919672502        -4.33926202     0.000150035456         90.5596188       0.0785591141        -11.0843607

         195000000       0.082001275        -14.3915042     1.6744929e-005        -102.548565        0.919413902        -4.46102916
                  1.60973968e-005        -112.763721        0.147874422       -0.065241515     0.000151286678         88.8111597
                      0.919688818        -4.45318916     0.000145245425         89.2441809       0.0785146353        -11.4873353

         200000000      0.0826694092        -14.7303589    1.91936545e-005        -105.194762        0.919589076        -4.57961124
                  1.56139012e-005        -128.524818        0.147831346       -0.075715563     0.000155409692         89.2975993
                       0.91982915        -4.57023124     0.000156871366         90.6335392        0.078533367        -11.8614821

         205000000      0.0831451987        -15.0981496    1.92366283e-005        -127.738644        0.919704769        -4.69176984
                  2.06609976e-005        -112.475667         0.14789771        -0.12279208     0.000156327907         88.1643036
                      0.919913693        -4.68648984     0.000158878009         89.1280801       0.0784524214        -12.1776572

         210000000      0.0833844846         -15.427514    2.21231649e-005         -123.28333        0.919653642        -4.79995015
                  2.07942968e-005        -122.788197        0.147944598       -0.171970138     0.000154841501         89.9324043
                      0.919805601        -4.79682015     0.000159929802         90.5406757       0.0783651359        -12.5989713

         215000000      0.0837995323        -15.7890921    2.22409533e-005        -125.767486         0.91944122        -4.90537458
                  2.53479133e-005        -122.514796        0.147798948       -0.151215437     0.000165761222         88.3728913
                      0.919628824        -4.90303458     0.000158168639         90.0117704       0.0782285356        -12.7529079

         220000000      0.0840489985        -16.0198743    2.27093669e-005        -132.515432        0.919213867        -5.01466952
                  2.44300879e-005        -121.105073        0.147786382       -0.165918233     0.000160042067         90.1846786
                      0.919385155        -5.01241952     0.000171941364         90.8221586       0.0781207192        -13.0040506

         225000000      0.0843194546        -16.1718704    1.67411116e-005        -140.797766        0.919144656        -5.13097098
                  2.53686215e-005        -134.746708        0.147841092       -0.206819938     0.000176852633         89.6349791
                      0.919324325        -5.12835098     0.000180180913         89.7129685       0.0779172831        -13.3962846

         230000000      0.0847408194        -16.4292401    1.81220727e-005        -128.215132        0.919267643        -5.24858659
                  2.08180785e-005        -122.301458        0.147850776       -0.234530847     0.000180041402         88.2291971
                      0.919452989        -5.24732659     0.000182938086         90.3376132       0.0777593625        -13.6240534

         235000000      0.0849781465        -16.6235927     1.7022181e-005        -128.863061        0.919350889        -5.37104726
                  2.77771987e-005        -129.965335        0.147909683       -0.244102812     0.000186752226          88.268731
                        0.9195169        -5.36606726      0.00018360306         88.1589022       0.0777616937        -13.9454054

         240000000      0.0853366233         -16.855364    2.46844593e-005        -120.499264        0.919523972        -5.48846181
                  2.50124871e-005        -119.270626         0.14790299       -0.261772712     0.000187549049         90.0425431
                      0.919659689        -5.48449181     0.000186384544         87.6082179        0.077615933        -14.0890772

         245000000      0.0855637095        -17.1415329    2.76459057e-005         -122.71445        0.919603991        -5.60569963
                  2.26352968e-005        -137.219411        0.147965666       -0.270112527     0.000191070616         88.8699356
                      0.919736025        -5.59720963     0.000192143383         89.2759579       0.0774542404        -14.3295208

         250000000      0.0858061388        -17.2684659     2.4170603e-005        -125.531587        0.919467682        -5.71632707
                  2.05313614e-005        -128.419589        0.147939916       -0.243572535     0.000194450895         86.4007276
                      0.919582926        -5.70882707     0.000200545574         89.2256383       0.0772477649        -14.5472647

         255000000      0.0859982382        -17.5268807    2.90483898e-005         -125.63546        0.919200075        -5.82117876
                  2.52164999e-005        -124.444111        0.147863063       -0.223771904     0.000200085966         90.0925605
