! Created Tue Sep 16 19:45:14 2008
# hz S ma R 50
! 3 Port Network Data from SP1.SP block
! freq  magS11  angS11  magS12  angS12  magS13  angS13  
!       magS21  angS21  
!       magS22  angS22  magS23  angS23  
!       magS31  angS31  magS32  angS32  
!       magS33  angS33  
!     
          10000000      0.0775099339       -0.579320324        0.920296859       -0.233245171    5.71128222e-006         116.956349
                      0.920368772       -0.222421171       0.0784208199       -0.442100095    5.00598745e-006         26.2772509
                  4.46726705e-006         100.813148    9.39700714e-006         85.3721076        0.150173863       -0.045040166

          15000000      0.0776025723        -1.02940417        0.920321383       -0.351250357    4.02811676e-006        -119.564213
                      0.920331905       -0.350095357       0.0784430381       -0.976891234    7.59128248e-006         93.8980343
                  3.55423924e-006        -41.6924427    1.14348985e-005         99.7979883        0.150146943      -0.0175067778

          20000000      0.0774331766        -1.39507039        0.920326047       -0.462856598    2.87311652e-006        -64.8528636
                      0.920288677       -0.463458598       0.0785467023        -1.24144417    1.60391857e-005         75.4730622
                  8.08706319e-006        -72.7633432     1.8296013e-005         86.7012489        0.150160178       -0.014787721

          25000000      0.0775075119        -1.62932324        0.920335341       -0.585892809    1.03208732e-005         31.6291307
                      0.920396937       -0.581773809       0.0786032824        -1.62736441    2.02402294e-005         99.0399481
                  6.29647324e-006         169.656031    1.66690527e-005         80.0906533         0.15017732     -0.00859969314

          30000000       0.077481108        -2.25655296         0.92034463       -0.705137792    2.05903963e-006         124.153694
                      0.920496057       -0.698829792       0.0786852917        -1.72857575    1.72346794e-005         106.786288
                  3.68736349e-006         18.8293223    2.03032248e-005         89.3889756        0.150331734        0.077692444

          35000000      0.0775657994        -2.58727889        0.920238519       -0.817098219    6.04595704e-006         142.223004
                      0.920331651       -0.821063219       0.0786261662        -2.13178371    2.96428588e-005         90.0290885
                  6.70541098e-006        -158.319609    2.40739576e-005         70.0699892        0.150264211        0.105423056

          40000000      0.0774638995        -3.14179619        0.920256336        -0.93144249    2.79708754e-006         46.1252093
                      0.920238198        -0.93639549       0.0784511625        -2.31397407    3.09872323e-005         80.7330147
                   5.5460539e-006         73.8135434    2.89809273e-005         90.4344115        0.150291763        0.103046592

          45000000      0.0775005441        -3.62186974        0.920304569        -1.05856314    1.59065374e-006         85.0550333
                      0.920339693        -1.06062114       0.0783158072        -2.59454811    3.08840228e-005          79.251541
                  4.02883014e-006        -132.855043    3.41414724e-005         81.5172599        0.150247251         0.12023963

          50000000      0.0776218614        -4.06009323        0.920402806        -1.18271967    4.39058217e-006        -115.163139
                      0.920505227        -1.17723267       0.0783658558        -2.91161705    3.74937069e-005         92.8041324
                  6.09675884e-006         130.338062    3.78492087e-005         89.3357188        0.150202649       0.0972115912

          55000000      0.0777978836         -4.4355091        0.920276741        -1.29934688    4.93613131e-006         148.303804
                      0.920416384        -1.29141588       0.0782719109        -3.20200856    4.42103591e-005         87.6237284
                  5.25718066e-006         129.035388    3.93785183e-005         91.1156254        0.150208788       0.0997515082

          60000000      0.0777544944        -4.85119244        0.920373781        -1.41767324    3.83819561e-006         117.556337
                      0.920579137        -1.41076424       0.0783772821        -3.48525867    4.55567974e-005         88.4226592
                  2.33843819e-006        -148.792373    4.69350392e-005          89.807277        0.150252573       0.0786893601

          65000000      0.0779630829         -5.1189062        0.920281459        -1.53683096     1.4584031e-006        -106.796747
                       0.92050197        -1.53596796       0.0781217832        -3.79558028    4.92908283e-005         88.2752419
                   5.8497916e-006         160.294716    4.96370701e-005         89.8528154        0.150311963       0.0491791049

          70000000      0.0780909998        -5.40078372        0.920089108        -1.65008817     2.8241083e-006         70.1229294
                       0.92032269        -1.64820817       0.0779547704        -4.05077816    5.53856175e-005         96.3255932
                  1.84755159e-006         64.5630639    5.93293628e-005         89.9259975        0.150350859       0.0790141835

          75000000      0.0781547439        -5.88464921        0.920106257        -1.76703013    5.29537877e-006         39.3403067
                        0.9202196        -1.76680513       0.0779501974        -4.23131818    5.47738666e-005         88.9428892
                  3.59378088e-006         141.479719    5.66583346e-005         88.9262599        0.150351837       0.0602343173

          80000000      0.0782868041        -6.31872462        0.920112742        -1.88447979    5.85665159e-006         179.849589
                      0.920149046        -1.88081979       0.0778791864        -4.57884153    6.56482878e-005         90.9614508
                  5.21114282e-006         143.534537    5.90772464e-005         91.7661853         0.15041615       0.0687404574

          85000000      0.0781999286        -6.69335402        0.920170395        -2.00245921    1.24776944e-005         148.190535
                      0.920165426        -1.99974821        0.077877715        -4.91972357    6.38141693e-005         91.8283133
                  4.08475136e-006          152.77518    6.42845935e-005         88.5781296        0.150509469       0.0709080606

          90000000      0.0785487273        -6.99765866        0.920160163        -2.11543621    7.13446617e-006        -108.652093
                      0.920132503        -2.11316621       0.0778712913         -5.1428513    6.46141957e-005         87.3441312
                   3.9122018e-006         60.2749996    7.00648216e-005         86.1270686        0.150528394       0.0843498602

          95000000      0.0786368854        -7.46312453        0.920169489        -2.23242436    5.22195686e-006         175.786358
                      0.920120547        -2.23123436       0.0780291447        -5.41988175    7.14781434e-005         85.3827252
                  3.99369854e-006        -48.2847148     6.8223139e-005         87.5194262        0.150602992        0.101094955

         100000000      0.0788169822        -7.87127071        0.920200507        -2.35317135     7.1210584e-006         133.342168
                       0.92013419        -2.35259135       0.0780966863        -5.77493071    7.74735544e-005         86.0720969
                  4.31988172e-006        -98.7336843    7.54035561e-005         85.7845897        0.150633313        0.117943053

         105000000      0.0787978545        -7.98727183         0.92018278        -2.46438591    6.73989901e-006         149.563321
                      0.920081666        -2.46672591       0.0780292864        -6.09909663    7.53655942e-005         87.3685857
                  3.02819199e-006        -124.273685    7.76252556e-005         90.5222794        0.150646082        0.107025227

         110000000      0.0788776406        -8.38350692        0.920077989        -2.58883673    7.17031686e-006           174.7687
                      0.919996238        -2.59041672       0.0780089299        -6.39484102    8.04664313e-005         86.1118543
                  9.23933897e-006        -119.373248     8.3453914e-005         87.8260596        0.150731129        0.113547432

         115000000      0.0789082049        -8.64902928        0.919997307        -2.69665284    9.87841278e-006        -177.395032
                      0.920005357        -2.70078284       0.0778861364        -6.68897334     7.9013503e-005          86.896365
                  3.71657568e-006         158.214852    8.91075203e-005         84.8685812         0.15076252        0.097607508

         120000000      0.0789638946        -9.02307723        0.919983994        -2.81738178    3.10907982e-006         119.797287
                      0.920028363        -2.82230178       0.0779618161        -7.03381501    8.43591322e-005          93.236678
                   1.4435265e-006         89.3968605     8.8754171e-005         89.3380769        0.150737493        0.119218509

         125000000       0.078947401        -9.34979631        0.919942426        -2.93675731    4.32366324e-006        -136.125804
                      0.920046935        -2.94168731       0.0780389154        -7.34952258    9.43017413e-005         88.1428667
                  6.60943201e-006        -148.591281    9.83668905e-005         88.6476681        0.150772153        0.137897703

         130000000       0.078973165         -9.6398636        0.919844242        -3.04768396    9.80645728e-006        -175.383886
                      0.919987368        -3.05065396       0.0780704203        -7.58289326    9.72427965e-005         89.9416319
                   1.0301531e-005        -138.304692    9.50053148e-005          89.903478        0.150786117        0.155244925

         135000000      0.0793359779        -10.0425314         0.91991223        -3.16474783    1.07860306e-005        -175.719132
                      0.920011832        -3.17067783       0.0780503436        -7.72475067    9.95913278e-005         91.9256662
                  8.73233472e-006        -172.249138    9.82484405e-005         89.0824763        0.150740771         0.14163233

         140000000      0.0794225632        -10.2696177        0.919879667        -3.28921923    1.12729321e-005        -150.144148
                      0.919996456        -3.29612923       0.0779859043        -8.12008638     0.000102883248         87.5348681
                  1.02233095e-005         176.729835     0.000102639347          90.272708         0.15075885        0.177452368

         145000000      0.0797179057        -10.6243078        0.919969792        -3.41095912    1.02206149e-005         172.895573
                      0.920065015        -3.41770912       0.0780803778        -8.46050962       0.0001056286         88.8588605
                  7.90420114e-006         116.633804       0.0001042755         89.7804605        0.150684285        0.159307645

         150000000      0.0800055318        -11.1619755          0.9199123        -3.52427869    1.37984127e-005        -162.249807
                      0.919973793        -3.53273869       0.0780274576        -8.66094979       0.0001091626         92.9672762
                  1.26122339e-005         170.849328     0.000112758515         89.7182009        0.150681237        0.155399902

         155000000      0.0799151842        -11.5956491        0.919635914        -3.63653383    1.10182368e-005         170.323533
                      0.919735899        -3.64490383       0.0780223751        -8.99124521     0.000114231901         88.8558196
                  1.32621587e-005         158.366019     0.000115075361         87.7900708        0.150520559        0.129083052

         160000000      0.0802895067        -11.8633103        0.919566116        -3.76152475     1.4656625e-005          145.40135
                      0.919652403        -3.76825475       0.0777019021         -9.2276237     0.000119754611         88.2503215
                  1.04145413e-005         162.588047     0.000122521521         87.7115711        0.150481392       0.0952263777

         165000000      0.0805555574        -12.1032875        0.919720745        -3.88701868      1.307757e-005         176.137814
                      0.919817869        -3.89440868       0.0775070544        -9.52809837     0.000117265598         86.3047932
                  9.41422243e-006        -161.870112      0.00011634607         88.2726365        0.150441325       0.0609024519

         170000000      0.0807954491         -12.642222         0.91984098        -3.99721374    1.13667631e-005        -149.169296
                      0.919934558        -4.00402374       0.0775487513         -9.9678355     0.000124253863         89.4696793
                  1.13493681e-005         162.136675     0.000128983648         86.9164441        0.150372808      -0.0100230434

         175000000      0.0809388674        -12.9043966        0.919884962        -4.12343546    8.33304104e-006        -141.064384
                      0.920029863        -4.13008546       0.0772897406        -10.2589158       0.0001323803         88.0668867
                  1.35904148e-005         177.926478     0.000125959089         88.1688981        0.150360759       -0.053372441

         180000000      0.0813061728        -13.3363165        0.919708649        -4.23126334    1.42044321e-005         162.907199
                      0.919812867        -4.23783334       0.0771892424        -10.6427619      0.00012575787         84.6594902
                  1.48620444e-005        -177.547089     0.000135049566         89.0481056        0.150348672       -0.120963185

         185000000      0.0814835191        -13.5877152        0.919494502        -4.34835158    1.33695559e-005         163.553602
                      0.919556633        -4.35384158       0.0769523313        -11.0367563     0.000139701333         89.0649517
                  1.84767581e-005         -174.72772     0.000135012676         87.2948869        0.150298063       -0.161717018

         190000000      0.0819541502         -14.012978        0.919421989        -4.46513619    1.56378341e-005         174.000392
                      0.919492638        -4.47238619       0.0768102795        -11.3699724     0.000141250669          87.997158
                  1.59037267e-005         177.928472     0.000135804005         88.3737794        0.150329129       -0.221354132

         195000000      0.0824328937        -14.2812778        0.919529106        -4.58329718    1.74847596e-005        -164.094133
                      0.919543938        -4.59209718        0.076935134        -11.8421009     0.000140132071         89.2305835
                  1.64895374e-005          177.93514     0.000138053271         87.9107309        0.150343961       -0.283794321

         200000000      0.0828797599        -14.6948612        0.919626447        -4.70592008    1.59152034e-005        -178.580909
                      0.919630311        -4.71588008       0.0769652166         -12.122829     0.000145023761           89.42494
                  1.40312001e-005         166.078976      0.00013974988         88.0865221        0.150397659       -0.317386842

         205000000      0.0832759894        -15.0382376        0.919727555        -4.82286561    2.07475968e-005         175.037209
                      0.919719804        -4.83342561       0.0769951064        -12.5069349     0.000151702232         86.2806214
                  1.71530935e-005          161.69804     0.000152482843         86.5596379        0.150401171       -0.352321947

         210000000      0.0836604288        -15.3523513        0.919658545        -4.93592363     1.8346354e-005         162.871024
                      0.919617369        -4.94581363       0.0770022811        -12.9154056     0.000154009324         88.9353634
                  2.16505874e-005        -167.187199     0.000153493816         88.3403041         0.15037251       -0.372153125

         215000000      0.0841806443         -15.736048         0.91947343        -5.03817358    2.24356448e-005        -174.388131
                      0.919442234        -5.04887358       0.0768009358        -12.9646826     0.000155328762         87.9943952
                  1.70347614e-005        -174.124954     0.000156111042         86.8452779        0.150363245       -0.394663084

         220000000       0.084461389        -16.0155564        0.919231232         -5.1503053    2.36264121e-005        -171.533368
                      0.919140878         -5.1612253       0.0765154788        -13.2049986     0.000157848126         89.1264302
                  2.05248457e-005        -165.867038     0.000159168327         90.2018923        0.150409254       -0.391286025

         225000000      0.0845684672        -16.2560957        0.919173301        -5.28013649    3.00178621e-005        -172.111632
                      0.919081556        -5.28789649       0.0765326925        -13.5734174     0.000166728236         88.0422829
                  2.71400423e-005         -179.61182     0.000165367345         89.1567431        0.150404948       -0.457076395

         230000000      0.0848976273         -16.643565        0.919355637        -5.40183423    1.99298484e-005        -177.707542
                      0.919211784        -5.40825423       0.0764011765        -13.8628914     0.000167581213         87.9697348
                  2.37119964e-005          -176.8641     0.000165450456         88.2093268        0.150424792       -0.429703376

         235000000      0.0852535505         -16.725727        0.919451304        -5.51917802    2.10808369e-005        -178.650941
                      0.919295762        -5.52588802       0.0762481048        -14.0796683     0.000173434084         88.7665629
                  2.88975467e-005         171.465772     0.000166843782         85.3184233        0.150508622       -0.436324321

         240000000      0.0856776802        -16.8710626        0.919600697        -5.63493235    3.37286049e-005         174.937989
                        0.9194585        -5.64111235         0.07607238        -14.4219831     0.000171351102         88.3636182
                  2.79507927e-005        -176.029649      0.00016980681         90.6212434        0.150518147       -0.406581801

         245000000        0.08592991        -17.2555395        0.919707167        -5.75516309     2.5733318e-005         179.099308
                      0.919506282        -5.76017309       0.0759246616        -14.6604775     0.000180338369         88.3849716
                  2.80773462e-005         173.483862     0.000174692597         88.9938644         0.15043225       -0.402622644

         250000000      0.0861743493        -17.4285478        0.919530994        -5.86847751    3.40240891e-005        -175.994068
                      0.919320612        -5.87079751       0.0756949895        -14.9648017     0.000178449444         86.9821995
                  2.85410254e-005           170.4636     0.000177242926         88.9367101        0.150378153       -0.336168664

         255000000      0.0864761944        -17.5833777        0.919283812        -5.97285188    3.19706694e-005         170.861144
                      0.919050366        -5.97618188       0.0753651081         -15.150536     0.000183679317          86.414705
