! freq mag(S11) phase(S11) mag(S12) phase(S12) 
!      mag(S21) phase(S21) mag(S22) phase(S22)
! Vdd= 12.5 V, Idq = 1500mA 
!s-parameter data
#  MHz  S  MA  R 50
50 0.797 -161 20.72 90 0.020 2 0.743 -159
100 0.824 -168 10.01 80 0.019 -5 0.741 -167
150 0.849 -171 6.54 74 0.019 -9 0.746 -170
200 0.861 -173 4.83 67 0.018 -14 0.759 -171
250 0.870 -175 3.76 61 0.017 -19 0.770 -171
300 0.879 -175 3.04 56 0.016 -20 0.791 -173
350 0.887 -176 2.51 50 0.015 -21 0.811 -173
400 0.897 -177 2.11 45 0.013 -26 0.824 -174
450 0.905 -178 1.80 41 0.013 -23 0.847 -175
500 0.911 -178 1.54 37 0.011 -21 0.858 -175
550 0.917 -179 1.35 33 0.010 -23 0.871 -176
600 0.924 -180 1.17 29 0.009 -21 0.881 -177
650 0.927 179 1.04 26 0.009 -16 0.887 -178
700 0.933 179 0.93 23 0.007 -8 0.899 -179
750 0.937 178 0.83 20 0.007 -3 0.901 180
800 0.940 177 0.76 17 0.006 -2 0.906 179
850 0.941 177 0.68 14 0.007 0 0.918 178
900 0.944 176 0.63 12 0.006 21 0.920 177
950 0.946 175 0.58 10 0.008 17 0.927 176
1000 0.948 174 0.53 7 0.007 43 0.929 175
1050 0.952 174 0.49 5 0.008 44 0.929 175
1100 0.953 173 0.45 3 0.008 44 0.930 173
1150 0.952 172 0.42 1 0.009 47 0.931 173
1200 0.951 172 0.39 -1 0.010 51 0.928 172
1250 0.952 171 0.36 -3 0.010 51 0.932 171
1300 0.952 171 0.34 -5 0.011 52 0.931 170
1350 0.949 170 0.31 -7 0.011 53 0.931 169
1400 0.947 169 0.29 8 0.011 58 0.937 169
1450 0.945 169 0.28 -9 0.012 60 0.926 168
1500 0.942 168 0.26 -9 0.012 64 0.927 166