! freq mag(S11) phase(S11) mag(S12) phase(S12) 
!      mag(S21) phase(S21) mag(S22) phase(S22)
! Vdd= 12.5 V, Idq = 150mA 
!s-parameter data
#  MHz  S  MA  R 50
50 0.781 -141 16.89 93 0.035 4 0.685 -137
100 0.784 -157 8.14 77 0.035 -11 0.681 -151
150 0.803 -162 5.19 67 0.032 -18 0.704 -157
200 0.830 -165 3.69 58 0.030 -26 0.743 -159
250 0.852 -167 2.77 50 0.027 -34 0.773 -161
300 0.873 -169 2.16 44 0.025 -39 0.812 -164
350 0.892 -171 1.72 37 0.022 -43 0.844 -166
400 0.906 -172 1.40 33 0.020 -45 0.862 -168
450 0.919 -173 1.16 28 0.017 -47 0.888 -170
500 0.928 -175 0.97 24 0.015 -51 0.903 -171
550 0.936 -176 0.83 20 0.012 -52 0.913 -173
600 0.941 -177 0.71 17 0.010 -50 0.921 -174
650 0.946 -178 0.62 14 0.010 -52 0.926 -176
700 0.952 -179 0.55 11 0.008 -47 0.934 -177
750 0.954 180 0.48 9 0.006 -48 0.937 -178
800 0.957 179 0.44 7 0.006 -40 0.940 -180
850 0.959 178 0.39 4 0.004 -30 0.950 179
900 0.960 177 0.35 3 0.005 -1 0.952 178
950 0.963 176 0.32 1 0.004 17 0.957 177
1000 0.964 176 0.29 -1 0.004 28 0.958 176
1050 0.964 175 0.27 -3 0.004 43 0.953 175
1100 0.966 174 0.25 -4 0.005 42 0.955 174
1150 0.963 173 0.23 -6 0.005 59 0.954 173
1200 0.964 174 0.21 -8 0.007 58 0.952 172
1250 0.962 172 0.20 -9 0.008 57 0.956 171
1300 0.961 172 0.18 -11 0.008 57 0.953 171
1350 0.960 171 0.17 -11 0.010 68 0.950 170
1400 0.957 170 0.16 -12 0.010 61 0.957 169
1450 0.957 169 0.15 -12 0.011 67 0.942 168
1500 0.952 169 0.14 -13 0.011 76 0.944 167