! freq mag(S11) phase(S11) mag(S12) phase(S12) 
!      mag(S21) phase(S21) mag(S22) phase(S22)
! Vdd= 12.5 V, Idq = 800mA 
!s-parameter data
#  MHz  S  MA  R 50
50 0.832 -156 20.68 90 0.022 3 0.740 -157
100 0.833 -167 9.98 80 0.022 -6 0.734 -165
150 0.839 -171 6.51 73 0.020 -11 0.741 -169
200 0.851 -172 4.78 67 0.020 -16 0.756 -169
250 0.851 -174 3.71 60 0.018 -20 0.767 -170
300 0.861 -174 3.00 55 0.017 -22 0.791 -172
350 0.872 -175 2.46 49 0.016 -23 0.813 -172
400 0.883 -176 2.06 44 0.014 -26 0.828 -173
450 0.894 -177 1.75 40 0.014 -26 0.849 -174
500 0.902 -178 1.50 35 0.012 -26 0.863 -175
550 0.910 -179 1.30 31 0.011 -27 0.874 -176
600 0.919 -179 1.14 28 0.010 -29 0.886 -177
650 0.923 180 1.01 25 0.009 -25 0.890 -178
700 0.929 179 0.90 22 0.008 -20 0.898 -179
750 0.934 178 0.81 19 0.007 -10 0.905 -180
800 0.937 177 0.73 16 0.006 -3 0.908 179
850 0.939 177 0.66 13 0.005 11 0.925 178
900 0.942 176 0.60 11 0.005 17 0.926 177
950 0.944 175 0.55 9 0.006 20 0.929 176
1000 0.949 175 0.51 6 0.006 25 0.935 176
1050 0.952 174 0.47 4 0.008 35 0.933 174
1100 0.954 173 0.43 2 0.007 38 0.935 173
1150 0.952 173 0.40 0 0.009 48 0.936 173
1200 0.954 172 0.37 -2 0.009 50 0.936 172
1250 0.951 171 0.34 -4 0.010 53 0.937 171
1300 0.950 171 0.32 -5 0.011 51 0.935 170
1350 0.951 170 0.30 -6 0.011 60 0.935 169
1400 0.948 170 0.28 -8 0.012 56 0.939 169
1450 0.947 169 0.27 -9 0.012 64 0.928 168
1500 0.944 168 0.25 -9 0.013 67 0.933 166