!QPL9503
!VDD=5V, IDD=55mA
#  HZ   S   DB   R     50.00 
! Measurements: S11 S21 S12 S22 
! 
 1.000000000000000E7    -1.491778416652846  -6.510190112784338   2.944215857485078E1   1.749242389277991E2  -4.518242409136317E1   3.061631539931185E1  -6.058098556095204  -7.406972126543869  
 4.995000000000000E7    -1.814742083189483  -1.002206845133976E1   2.923986818504450E1   1.683195522674602E2  -4.151898948275584E1   1.718486956214378E1  -6.446150902936650  -8.547723326730113  
 8.990000000000000E7    -2.016631831653283  -1.667683449098780E1   2.876917130130891E1   1.604173712653827E2  -4.122608939888617E1   1.648967399859692E1  -6.843825912040952  -1.286161518978280E1  
 1.298500000000000E8    -2.205673346988880  -2.330792327447829E1   2.833493783429389E1   1.537478453760894E2  -4.033104307180219E1   2.851570996651401E1  -7.172397241600781  -1.732136024110810E1  
 1.698000000000000E8    -2.359988061689770  -2.964412124321103E1   2.794816733230168E1   1.478237685815992E2  -3.897396994212674E1   2.693675662159284E1  -7.457397131228790  -2.079232102770392E1  
 2.097500000000000E8    -2.576765573765543  -3.560570225584613E1   2.753211365938522E1   1.425018935048845E2  -3.844467535226921E1   2.517868655558670E1  -7.761793468078063  -2.371410237233269E1  
 2.497000000000000E8    -2.793024363408726  -4.124642475780949E1   2.711512707452960E1   1.376574536817172E2  -3.777983786818061E1   3.114982229969829E1  -8.076697155248569  -2.697624872289372E1  
 2.896500000000000E8    -2.987892124021031  -4.699149661780042E1   2.679230731908061E1   1.326934984840748E2  -3.739961552798568E1   3.215678566446801E1  -8.430324693972702  -3.032096796071272E1  
 3.296000000000000E8    -3.205827304747790  -5.241941415491010E1   2.641515728212633E1   1.281830963773583E2  -3.635676645363991E1   3.048507421849162E1  -8.742337032413362  -3.308235205708387E1  
 3.695500000000000E8    -3.422901632857193  -5.780654185544240E1   2.611009001749414E1   1.239555759761637E2  -3.570070952661764E1   2.761419968005463E1  -9.165863478208282  -3.588725432453548E1  
 4.095000000000000E8    -3.685002651236335  -6.286801218883574E1   2.574406446165077E1   1.193361548187898E2  -3.558249522390827E1   2.900713679745230E1  -9.563514666685880  -3.829673367017680E1  
 4.494500000000000E8    -3.894925288493444  -6.766531805023128E1   2.539625055892520E1   1.154098928031559E2  -3.492648562488760E1   2.875769539141375E1  -9.864405895120022  -4.075379943689521E1  
 4.894000000000000E8    -4.139828536676757  -7.262520562656492E1   2.507467237799461E1   1.114001128204976E2  -3.475656243409281E1   2.818226616821909E1  -1.028317797918688E1  -4.273727232473874E1  
 5.293500000000000E8    -4.349212455069061  -7.696739481384321E1   2.474195876334959E1   1.075951302606359E2  -3.454410480141037E1   2.702248669630928E1  -1.069147922810745E1  -4.521465357538612E1  
 5.693000000000000E8    -4.577165933956021  -8.121265352847647E1   2.444139531612379E1   1.040453401336523E2  -3.396698159971815E1   2.397205561916757E1  -1.115065645673644E1  -4.677207634479047E1  
 6.092500000000000E8    -4.806613847429312  -8.547799311105457E1   2.412615026624464E1   1.002403882299255E2  -3.387589351375026E1   2.303370523333139E1  -1.143852305667816E1  -4.803740392293797E1  
 6.492000000000000E8    -5.015862921013450  -8.933806232570849E1   2.378950398359493E1   9.718463805082611E1  -3.342193309637359E1   2.339368302618109E1  -1.181771841546308E1  -5.009664334624624E1  
 6.891500000000000E8    -5.200399497892929  -9.325779124837683E1   2.351764849890093E1   9.368754544638857E1  -3.320748199273088E1   2.193002618660781E1  -1.228613084099959E1  -5.108799531662429E1  
 7.291000000000000E8    -5.410846856928516  -9.678519774312336E1   2.321366862101090E1   9.057690629380085E1  -3.338092319892368E1   2.048465787690017E1  -1.264628891699882E1  -5.306747338290668E1  
 7.690500000000000E8    -5.584099686326844  -1.003243747143602E2   2.294093958260458E1   8.758037067203149E1  -3.308605818416054E1   1.869225730975245E1  -1.302745873053133E1  -5.362507230190756E1  
 8.090000000000000E8    -5.777634524071194  -1.038708997015934E2   2.267360752784123E1   8.438092733868544E1  -3.289798641005920E1   1.630189948451280E1  -1.345876977161837E1  -5.425554786453077E1  
 8.489500000000000E8    -5.940262576887057  -1.068490826979025E2   2.235810821405197E1   8.184159140469862E1  -3.275274623165056E1   1.645480834365891E1  -1.385067513590856E1  -5.546332005529437E1  
 8.889000000000000E8    -6.105693742307653  -1.098165386112645E2   2.215084844047173E1   7.907862212065307E1  -3.258229269732192E1   1.662685448599152E1  -1.410900270237699E1  -5.551163421137799E1  
 9.288500000000000E8    -6.250769476645367  -1.129615573272933E2   2.188670001624321E1   7.590828968516509E1  -3.241061446178752E1   1.395366036206783E1  -1.458008358428567E1  -5.708021617729478E1  
 9.688000000000000E8    -6.379092009388987  -1.158776523113501E2   2.165760542360610E1   7.365502316380278E1  -3.242546669813606E1   1.223362816102779E1  -1.489760139105177E1  -5.723100217605013E1  
 1.008750000000000E9    -6.534526349950653  -1.184030306640378E2   2.144319535772088E1   7.079929096896733E1  -3.203347377105968E1   1.269054289524104E1  -1.528277091686111E1  -5.755549795759414E1  
 1.048700000000000E9    -6.673785634083484  -1.209964331528289E2   2.117031046108366E1   6.857752805406018E1  -3.221192493040745E1   1.039498840476537E1  -1.562717488868672E1  -5.823574902358475E1  
 1.088650000000000E9    -6.806481245851036  -1.235298052773997E2   2.100234105166584E1   6.598397621257644E1  -3.204162660707090E1   1.063863438135613E1  -1.586430848085296E1  -5.841731524242606E1  
 1.128600000000000E9    -6.949538732549185  -1.260186774286062E2   2.075982559522222E1   6.339842913527736E1  -3.195512315743860E1   9.445638206526889  -1.617643511471669E1  -5.895346219977561E1  
 1.168550000000000E9    -7.020529548037769  -1.282956111789736E2   2.057321743805916E1   6.129867497621373E1  -3.191637003642784E1   8.044649738901768  -1.645709474175589E1  -5.822000072284186E1  
 1.208500000000000E9    -7.163261717506409  -1.306846690673407E2   2.040766648086278E1   5.885717919180710E1  -3.179884037870218E1   6.624718723261290  -1.671754285329874E1  -5.825733492364339E1  
 1.248450000000000E9    -7.266464058913433  -1.327166923717902E2   2.020418011731066E1   5.658812881389490E1  -3.163546839525895E1   5.875252220819699  -1.690961489374868E1  -5.863905512007105E1  
 1.288400000000000E9    -7.320412404223190  -1.349784462795761E2   2.005189484844303E1   5.440846979063514E1  -3.129632212104697E1   4.346242714211543  -1.713540798068397E1  -5.854837934726458E1  
 1.328350000000000E9    -7.443428487211437  -1.366936225331213E2   1.986194811857851E1   5.201692931205536E1  -3.163832103740496E1   3.063947554614728  -1.737141369794945E1  -5.778144708863164E1  
 1.368300000000000E9    -7.524976593848641  -1.387473345916102E2   1.971646912108508E1   5.025928565526933E1  -3.142012216853865E1   3.124825671765253  -1.743800402419646E1  -5.765537023228541E1  
 1.408250000000000E9    -7.622288257733509  -1.406304554789679E2   1.956381695289822E1   4.808205361129792E1  -3.134929752771764E1   2.091967235059880  -1.765210153414649E1  -5.710853543579588E1  
 1.448200000000000E9    -7.662708717483754  -1.421868366664787E2   1.938555333110361E1   4.583883389408246E1  -3.155694602278586E1   3.876535193488463E-1  -1.772409663295780E1  -5.637549493690935E1  
 1.488150000000000E9    -7.743461090548599  -1.442232411546171E2   1.928190233816225E1   4.395891697970853E1  -3.125289399085148E1  -6.589277249717888E-1  -1.785208459581488E1  -5.672055567546725E1  
 1.528100000000000E9    -7.831601033505577  -1.453749991766531E2   1.915268702876811E1   4.157757488522300E1  -3.146357365563498E1  -2.449851286355159  -1.785726913648725E1  -5.542772151470322E1  
 1.568050000000000E9    -7.876704494394415  -1.469853534954793E2   1.902693165445160E1   4.009325275117227E1  -3.134616886537418E1  -1.482727340027385  -1.789236342887440E1  -5.617124045418763E1  
 1.608000000000000E9    -7.947446070478938  -1.486602520466292E2   1.899118424696051E1   3.777131343886766E1  -3.108090326686213E1  -3.882488454796417  -1.798493000926194E1  -5.442359130066893E1  
 1.647950000000000E9    -7.967024963177588  -1.500476270737470E2   1.874169607287764E1   3.548697193591968E1  -3.127015222724795E1  -3.823845065140826  -1.793415038929933E1  -5.474654555034908E1  
 1.687900000000000E9    -8.051017318872509  -1.514052961471184E2   1.871897483048083E1   3.413138192700962E1  -3.137783000581391E1  -5.198665422651311  -1.776621808458262E1  -5.544322018580755E1  
 1.727850000000000E9    -8.088045818903558  -1.526724565534571E2   1.861676325495582E1   3.160816820399121E1  -3.122900691691980E1  -7.120682143492301  -1.773440148291083E1  -5.377186035345864E1  
 1.767800000000000E9    -8.103217937103072  -1.538513715447590E2   1.846009499136759E1   3.018552359908322E1  -3.117100328877723E1  -7.782240748090127  -1.776203683318997E1  -5.442566599366173E1  
 1.807750000000000E9    -8.178366803377838  -1.552512997731734E2   1.846406031355940E1   2.811321177161057E1  -3.116058853401306E1  -7.906757293255310  -1.764784331512819E1  -5.457316283183835E1  
 1.847700000000000E9    -8.182392753708808  -1.564028692369520E2   1.829059787889684E1   2.600194128727643E1  -3.120616445382103E1  -8.629658840976605  -1.743636734862692E1  -5.336049843438558E1  
 1.887650000000000E9    -8.236276870229764  -1.578463298916558E2   1.826177090908985E1   2.451078284135062E1  -3.106020604076065E1  -1.100782768232510E1  -1.725795657268485E1  -5.412831084976282E1  
 1.927600000000000E9    -8.289418372341435  -1.588120570364240E2   1.819363151454490E1   2.225989119556425E1  -3.100457240059031E1  -1.212257739634574E1  -1.711456296593713E1  -5.378696852814511E1  
 1.967550000000000E9    -8.245447504335967  -1.597469268114674E2   1.807223513474103E1   2.066908033362102E1  -3.117947632486061E1  -1.140224256653116E1  -1.696206779848059E1  -5.388386328455980E1  
 2.007500000000000E9    -8.300488853460353  -1.608048962682672E2   1.806573192034550E1   1.907015973331237E1  -3.102948659448110E1  -1.234755873827784E1  -1.685934065377729E1  -5.459242384357599E1  
 2.047450000000000E9    -8.312569311160786  -1.616961821084887E2   1.800106978229600E1   1.677182926054746E1  -3.103264991711752E1  -1.435704657248152E1  -1.655131887678554E1  -5.414448794573922E1  
 2.087400000000000E9    -8.308904316799000  -1.627278279721098E2   1.789658068733643E1   1.544279114751997E1  -3.109389204787872E1  -1.442704268592354E1  -1.637565660003945E1  -5.494265907486346E1  
 2.127350000000000E9    -8.365801290244070  -1.635259553620947E2   1.793504803232369E1   1.342719432470607E1  -3.112975933218565E1  -1.721503178631076E1  -1.623055239296641E1  -5.522503911303220E1  
 2.167300000000000E9    -8.299302834649957  -1.644483069583162E2   1.781055553264505E1   1.150097588320465E1  -3.108881093282243E1  -1.663428368435418E1  -1.588040101485466E1  -5.579938273386017E1  
 2.207250000000000E9    -8.308398126742242  -1.655206605552305E2   1.781182080921724E1   1.019384894227446E1  -3.089627904558996E1  -1.847629893091434E1  -1.574378920498705E1  -5.527401035257481E1  
 2.247200000000000E9    -8.337523127316798  -1.663210220031376E2   1.777136315788118E1   7.771333594441683  -3.114114553176021E1  -1.911831253842613E1  -1.548539410033645E1  -5.570783661224117E1  
 2.287150000000000E9    -8.324397660993697  -1.672834351293842E2   1.768060145275475E1   6.294971337229232  -3.104560712707078E1  -1.997293211756859E1  -1.528870639827247E1  -5.715160505829798E1  
 2.327100000000000E9    -8.393714119469891  -1.677769823744833E2   1.774022329144840E1   4.464053049331851  -3.127810760795906E1  -2.290903256606380E1  -1.507464405558404E1  -5.719473382389422E1  
 2.367050000000000E9    -8.330281628228530  -1.690851412995651E2   1.761935256185453E1   2.346509782024616  -3.119787411472745E1  -2.176436126409194E1  -1.481235189598657E1  -5.844034432327180E1  
 2.407000000000000E9    -8.332112328591446  -1.698270407721155E2   1.763734488545844E1   1.218273288558768  -3.108266988386927E1  -2.376498061746937E1  -1.459497238835281E1  -5.825709832542196E1  
 2.446950000000000E9    -8.293449473849288  -1.703440403855257E2   1.761838417385582E1  -9.496499647062895E-1  -3.137020101241509E1  -2.470677458941590E1  -1.436234298522440E1  -5.847341975342238E1  
 2.486900000000000E9    -8.289236703323320  -1.713124630213523E2   1.756687380628240E1  -2.371350346470476  -3.128830876553705E1  -2.451402870275586E1  -1.415073983992714E1  -5.953080659942534E1  
 2.526850000000000E9    -8.322172406992921  -1.718796536509210E2   1.760097301251089E1  -4.200270544553094  -3.108218635121144E1  -2.485815645209251E1  -1.386295544535375E1  -5.939303238637557E1  
 2.566800000000000E9    -8.309571445608690  -1.726575818163267E2   1.754380784069269E1  -6.075761712401024  -3.132844577695531E1  -2.728888869080904E1  -1.367553747917069E1  -6.042494119853588E1  
 2.606750000000000E9    -8.253865873080830  -1.733783636498750E2   1.754620746950057E1  -7.544841573810203  -3.124738648599192E1  -2.808525284502933E1  -1.349049819731215E1  -6.134511682951195E1  
 2.646700000000000E9    -8.221079817036083  -1.739153953243120E2   1.753928595057318E1  -9.596953536442230  -3.129358497486490E1  -2.889056006746654E1  -1.311485217892282E1  -6.132248564915308E1  
 2.686650000000000E9    -8.248463054040945  -1.746632602157110E2   1.750538965187120E1  -1.120469719281859E1  -3.116947550115448E1  -3.048941458261533E1  -1.294146175408475E1  -6.223538483640449E1  
 2.726600000000000E9    -8.193663141412291  -1.752871231544453E2   1.754688324453453E1  -1.293331440035814E1  -3.145475396538183E1  -3.217786587573263E1  -1.272924476489066E1  -6.296921826358276E1  
 2.766550000000000E9    -8.151959549508764  -1.759801452438872E2   1.751383074038115E1  -1.493379045561188E1  -3.140171498007143E1  -3.310312340223960E1  -1.235162888464862E1  -6.356743647678054E1  
 2.806500000000000E9    -8.131867696184479  -1.767822617658554E2   1.752316075888977E1  -1.621309781357685E1  -3.118585569466429E1  -3.321375404347020E1  -1.226228598846168E1  -6.416695941613072E1  
 2.846450000000000E9    -8.080486361113001  -1.771906414705480E2   1.757008284937412E1  -1.817508708892511E1  -3.155352527911734E1  -3.548764769812383E1  -1.192654502342023E1  -6.487738772084757E1  
 2.886400000000000E9    -8.075840979435197  -1.780715610659974E2   1.752276292634330E1  -1.995628099490822E1  -3.154831107912896E1  -3.599960602490398E1  -1.174083109556321E1  -6.587224664671579E1  
 2.926350000000000E9    -8.055313154166599  -1.789975070331463E2   1.755442414427597E1  -2.142915604359813E1  -3.143948560951927E1  -3.776181828849335E1  -1.154756739854781E1  -6.617795016281535E1  
 2.966300000000000E9    -7.972997559185206  -1.794540245547039E2   1.756481125361226E1  -2.359345563238460E1  -3.173127642027990E1  -3.776008615824810E1  -1.121113883958828E1  -6.693980432816574E1  
 3.006250000000000E9    -7.958174282849892   1.798962991311412E2   1.755190355107562E1  -2.497515015532480E1  -3.171454159358774E1  -3.920644723478094E1  -1.112766922703519E1  -6.764820498569733E1  
 3.046200000000000E9    -7.938488948865006   1.790639738058818E2   1.764744470962787E1  -2.677580406490273E1  -3.183390297257578E1  -3.937467282026421E1  -1.082210211868438E1  -6.791721829020410E1  
 3.086150000000000E9    -7.858216028948671   1.783092043241850E2   1.761247115868147E1  -2.897342554915015E1  -3.196595647375266E1  -4.200285867679369E1  -1.056285582866975E1  -6.948586464300649E1  
 3.126100000000000E9    -7.875154925776232   1.778413232423727E2   1.762262699251242E1  -2.996870682261096E1  -3.198810330585047E1  -4.287913590011102E1  -1.042979604193370E1  -6.967597997426307E1  
 3.166050000000000E9    -7.786797660289160   1.773682999186561E2   1.767555188369076E1  -3.214076533227012E1  -3.217306532496837E1  -4.402205809035557E1  -1.014335834817994E1  -7.129716017725818E1  
 3.206000000000000E9    -7.728799445413328   1.767552619959634E2   1.762109093380387E1  -3.372427652210499E1  -3.224659407852371E1  -4.515162744259271E1  -1.001502759724008E1  -7.167293401757966E1  
 3.245950000000000E9    -7.703435119727335   1.759054790898695E2   1.772226447123216E1  -3.534907070113917E1  -3.213531170015477E1  -4.563464013744962E1  -9.768650303812665  -7.190058260446416E1  
 3.285900000000000E9    -7.639052833207045   1.749314239237394E2   1.771546521276177E1  -3.760228030374562E1  -3.243649935696089E1  -4.661307339570596E1  -9.635691229659868  -7.336511042021868E1  
 3.325850000000000E9    -7.595055365613766   1.742992431791892E2   1.772824521285992E1  -3.898190958209343E1  -3.232787966334934E1  -4.821019961049180E1  -9.478805957366172  -7.368075868404073E1  
 3.365800000000000E9    -7.541535527546405   1.734446488487803E2   1.777918547309156E1  -4.056289718962725E1  -3.238785754471023E1  -5.131339772585626E1  -9.267665594360164  -7.408466571882686E1  
 3.405750000000000E9    -7.492107727595060   1.726458113228853E2   1.782011310113325E1  -4.276243113703430E1  -3.252732516673547E1  -4.961575463865243E1  -9.121931052784186  -7.494917284034513E1  
 3.445700000000000E9    -7.527090335778446   1.719571572865089E2   1.778058576061372E1  -4.391505496669073E1  -3.272725504962252E1  -5.075551284447079E1  -8.877602009333463  -7.553476479681642E1  
 3.485650000000000E9    -7.394244704964049   1.711534084782349E2   1.795892518352046E1  -4.617562879686160E1  -3.272881346385827E1  -5.309523385298206E1  -8.698252349610611  -7.652190667945014E1  
 3.525600000000000E9    -7.409691627595364   1.705486495197384E2   1.782977608808882E1  -4.792010722726779E1  -3.285948639490889E1  -5.293627947722074E1  -8.587066824750886  -7.690315787352878E1  
 3.565550000000000E9    -7.366591614743178   1.698648814009216E2   1.799612074446068E1  -4.888216589241197E1  -3.286526082352772E1  -5.626686503484752E1  -8.335821681949918  -7.770566464107158E1  
 3.605500000000000E9    -7.232850730000928   1.685886011136706E2   1.800736815288044E1  -5.196907354792334E1  -3.300367891546907E1  -5.408784102391223E1  -8.269859715662623  -7.868276784078813E1  
 3.645450000000000E9    -7.286703573739059   1.680010877077207E2   1.798038802685628E1  -5.266441453786591E1  -3.301712721842233E1  -5.819521308223459E1  -8.015887281395257  -7.931233103520289E1  
 3.685400000000000E9    -7.136532427766556   1.669024361570372E2   1.815955606012471E1  -5.528802466021861E1  -3.364334980759364E1  -5.790191285785434E1  -7.893434230852313  -8.056444950377939E1  
 3.725350000000000E9    -7.132261740036348   1.659429239649116E2   1.805707904692092E1  -5.715488904315771E1  -3.327919635322346E1  -5.877802666942939E1  -7.725912177787417  -8.056167559414519E1  
 3.765300000000000E9    -7.077634601401729   1.653134765760330E2   1.820936990084196E1  -5.850044910221902E1  -3.381273854327780E1  -6.112259902774098E1  -7.529071813087131  -8.163463349489859E1  
 3.805250000000000E9    -7.028573908916303   1.641853622341014E2   1.820538008691145E1  -6.075907333309147E1  -3.393527799261516E1  -6.110600935101096E1  -7.420154659021462  -8.214280697101663E1  
 3.845200000000000E9    -6.957992070425380   1.637284705621226E2   1.825669164661404E1  -6.211315634778164E1  -3.386949209924850E1  -6.398629935777184E1  -7.248040308126260  -8.315461449140793E1  
 3.885150000000000E9    -6.920201731755033   1.627711111122406E2   1.827590081992456E1  -6.428103067382774E1  -3.397982497778796E1  -6.337278799358385E1  -7.156225491899620  -8.410056238499895E1  
 3.925100000000000E9    -6.873516930193899   1.615019994143295E2   1.834908767148028E1  -6.611939603180680E1  -3.393249079506346E1  -6.651065450696471E1  -6.968202481555195  -8.475155070779132E1  
 3.965050000000000E9    -6.802678201532946   1.608052163260788E2   1.841428668441350E1  -6.785640967295639E1  -3.447162971469941E1  -6.778242980843048E1  -6.824248249061411  -8.542385521778520E1  
