! TriQuint Semiconductor			
! TQP3M9038 High Linearity LNA Gain Block											
! 16 pins 3x3 mm QFN Package						
! The data is for the unmatched device in a 50 Ohm system, 2-port file de-embedded to the device leads.
! Device bias: +5V @ 86 mA Icq			
! Temperature: 25C			
! Lot Code: N/A 						
						
!  Port 1 corresponds to Pin 2 (RF input)						
!  Port 2 corresponds to Pin 11 (RF output)						

!Agilent Technologies,N5242A,MY47200126,A.09.80.03
!Agilent N5242A: A.09.80.03
!Date: Friday, November 16, 2012 15:25:08
!Correction: S11(Full 2 Port(1,3)) 
!S31(Full 2 Port(1,3)) 
!S13(Full 2 Port(1,3)) 
!S33(Full 2 Port(1,3)) 
!S2P File: Measurements: S11, S31, S13, S33:
# Hz S  dB   R 50
10000000 -12.147399 -61.942261 17.720947 166.95528 -20.642488 12.06896 -17.883818 -94.661789
15000000 -14.313808 -32.49781 17.324936 169.26378 -20.59622 10.957086 -17.143059 -51.242165
20000000 -13.508649 -39.366264 17.180285 169.72221 -20.383167 9.9628277 -17.531418 -52.09901
25000000 -14.057366 -43.164715 17.032848 169.59491 -20.214157 9.1660547 -17.569216 -56.199581
30000000 -14.337695 -45.697353 16.886881 169.41594 -20.068012 8.6675568 -17.869125 -63.119427
35000000 -15.043523 -47.481312 16.741718 169.28691 -19.936974 8.2998056 -18.564064 -66.102318
40000000 -15.574733 -51.074596 16.628235 169.112 -19.798933 7.7667813 -19.375837 -71.237267
45000000 -16.053324 -53.398739 16.525921 168.97147 -19.675524 7.2706895 -19.680248 -75.211578
50000000 -15.865764 -50.893391 16.433241 168.84358 -19.57501 6.6359906 -20.093309 -79.792152
55000000 -17.01952 -58.730564 16.344772 168.71327 -19.468473 6.0567536 -20.36517 -83.357994
60000000 -17.301645 -61.177227 16.267944 168.58365 -19.380457 5.4357047 -20.582142 -85.329636
65000000 -17.973654 -63.138531 16.195244 168.42999 -19.319391 4.9773164 -21.015654 -89.397232
70000000 -18.423229 -65.193199 16.130508 168.2951 -19.263439 4.4769444 -21.331032 -92.785912
75000000 -18.91235 -67.219681 16.071999 168.14903 -19.215485 3.9765294 -21.643312 -97.780563
80000000 -19.263803 -67.772453 16.016573 168.06152 -19.168993 3.4869301 -21.787127 -100.25411
85000000 -19.604647 -68.990883 15.967582 167.95035 -19.13426 3.036489 -22.054312 -102.78152
90000000 -20.033016 -70.057693 15.92327 167.83769 -19.100616 2.5558894 -22.179718 -105.88681
95000000 -20.398432 -71.878349 15.884269 167.71698 -19.072693 2.1329174 -22.486032 -108.88079
100000000 -20.681183 -73.244873 15.849419 167.58615 -19.046896 1.7101682 -22.762592 -112.90842
105000000 -21.0758 -74.082169 15.818447 167.4608 -19.02306 1.3082049 -22.85906 -113.82411
110000000 -21.353325 -75.027107 15.786634 167.32132 -19.004416 0.95387203 -23.03776 -116.0515
115000000 -21.702963 -75.75827 15.760228 167.17407 -18.988031 0.56994057 -23.161354 -118.52174
120000000 -22.076483 -76.061005 15.735881 167.02452 -18.973843 0.19323222 -23.388784 -120.54161
125000000 -22.3384 -77.500977 15.71322 166.87987 -18.958296 -0.16794014 -23.514284 -121.56581
130000000 -22.514647 -78.537781 15.694714 166.68678 -18.943577 -0.5231173 -23.423119 -125.34695
135000000 -22.816252 -78.520752 15.675057 166.51581 -18.931841 -0.85359591 -23.738865 -126.36219
140000000 -23.116005 -79.226494 15.65816 166.33928 -18.920244 -1.1923211 -23.892191 -128.37975
145000000 -23.354177 -79.672226 15.643021 166.1563 -18.913296 -1.5223494 -24.007067 -129.76033
150000000 -23.512402 -80.415359 15.626827 165.93954 -18.911755 -1.7520936 -24.040287 -133.63423
155000000 -23.860304 -81.237328 15.61656 165.75246 -18.903624 -2.0653362 -24.13607 -133.32555
160000000 -24.093006 -81.53315 15.604833 165.54839 -18.895599 -2.3794043 -24.217266 -134.47296
165000000 -24.271547 -82.18132 15.594759 165.34177 -18.88932 -2.673743 -24.265282 -135.47052
170000000 -24.505697 -82.517204 15.584223 165.12428 -18.885128 -2.9771817 -24.292423 -137.89235
175000000 -24.693903 -83.299782 15.575019 164.90718 -18.876261 -3.2534924 -24.441153 -138.89236
180000000 -24.832731 -83.287285 15.565021 164.69511 -18.872738 -3.5352371 -24.510386 -139.98056
185000000 -25.074305 -83.721603 15.555574 164.46832 -18.871698 -3.8151879 -24.600241 -141.23337
190000000 -25.17445 -84.427948 15.547976 164.24586 -18.865919 -4.0850568 -24.763117 -142.80788
195000000 -25.325861 -84.508698 15.540399 164.01566 -18.863583 -4.3493419 -24.635653 -143.42239
200000000 -25.495094 -85.481766 15.532108 163.78291 -18.862158 -4.6346669 -24.760845 -144.31956
205000000 -25.677935 -85.431862 15.526887 163.55698 -18.857178 -4.8864512 -24.735222 -145.43788
210000000 -25.819399 -86.11306 15.519554 163.31221 -18.844442 -5.2206998 -24.768202 -146.65271
215000000 -25.968458 -86.796135 15.513895 163.07291 -18.841579 -5.4795299 -24.843908 -147.34293
220000000 -26.062996 -87.087517 15.507778 162.83012 -18.840204 -5.7315583 -24.832962 -148.56052
225000000 -26.243616 -87.406792 15.5023 162.5771 -18.838385 -5.9827876 -24.918343 -149.73708
230000000 -26.333481 -87.235046 15.498161 162.33949 -18.836903 -6.2229805 -24.993986 -150.50218
235000000 -26.465408 -87.654404 15.493223 162.08917 -18.83326 -6.4760704 -24.991209 -151.95924
240000000 -26.63847 -88.190453 15.489095 161.83899 -18.832058 -6.7141252 -25.024267 -152.39931
245000000 -26.783125 -88.047684 15.485739 161.58311 -18.830912 -6.9640198 -25.077562 -153.08482
250000000 -26.920017 -88.78318 15.483225 161.32266 -18.827459 -7.179812 -25.08753 -153.81255
255000000 -26.968616 -88.948265 15.475822 161.02756 -18.821985 -7.4624472 -25.233101 -155.26044
260000000 -27.108454 -89.340523 15.472477 160.76486 -18.823296 -7.6988406 -25.193882 -155.70142
265000000 -27.242598 -89.495872 15.468993 160.49951 -18.820948 -7.9280977 -25.343004 -156.67767
270000000 -27.271536 -89.167297 15.46662 160.2352 -18.817238 -8.1515884 -25.282934 -157.09044
275000000 -27.468063 -89.308739 15.463194 159.97588 -18.816792 -8.4102764 -25.32593 -157.72627
280000000 -27.587715 -89.700333 15.462112 159.70311 -18.817579 -8.6507215 -25.362898 -158.52086
285000000 -27.554703 -90.124649 15.459384 159.42497 -18.816254 -8.870676 -25.403036 -159.28316
290000000 -27.748764 -90.61454 15.457128 159.15369 -18.815395 -9.0864105 -25.438898 -159.48337
295000000 -27.810858 -90.533096 15.453998 158.87752 -18.815531 -9.3089323 -25.376076 -160.91402
300000000 -27.987429 -90.758179 15.450792 158.60503 -18.814505 -9.5515985 -25.49593 -161.04108
305000000 -27.985929 -90.246986 15.44787 158.32809 -18.813721 -9.7783651 -25.489561 -162.11774
310000000 -27.973272 -90.391747 15.444444 158.05382 -18.813284 -10.003153 -25.54287 -162.17404
315000000 -28.138304 -91.427223 15.442778 157.78751 -18.814381 -10.224792 -25.576359 -162.93352
320000000 -28.212141 -90.319328 15.440641 157.51155 -18.811554 -10.441273 -25.703634 -163.53354
325000000 -28.260838 -90.88446 15.43941 157.21886 -18.811895 -10.661215 -25.71142 -164.41225
330000000 -28.350134 -90.753075 15.438205 156.93803 -18.809628 -10.90463 -25.667667 -164.19968
335000000 -28.385586 -90.835045 15.43746 156.65385 -18.810656 -11.123315 -25.711052 -165.15529
340000000 -28.487549 -91.06041 15.436576 156.3752 -18.810299 -11.345375 -25.753538 -165.72659
345000000 -28.538834 -90.846558 15.435444 156.0867 -18.808287 -11.555935 -25.799765 -166.32895
350000000 -28.699844 -90.745186 15.434993 155.80556 -18.807005 -11.785784 -25.804424 -166.39053
355000000 -28.651669 -90.793236 15.431732 155.51025 -18.807558 -12.005704 -25.780926 -167.41434
360000000 -28.671431 -90.653854 15.42987 155.22578 -18.808741 -12.219244 -25.960705 -167.58083
365000000 -28.78743 -90.79319 15.428971 154.92995 -18.808361 -12.438591 -25.862202 -168.33812
370000000 -28.808781 -90.654411 15.426319 154.64627 -18.809143 -12.653856 -25.950602 -168.92862
375000000 -28.831053 -90.682007 15.425498 154.35089 -18.810301 -12.896471 -26.021839 -169.6143
380000000 -28.903982 -90.748268 15.424705 154.05762 -18.80872 -13.106083 -26.008228 -169.8056
385000000 -28.898289 -90.034424 15.422155 153.75911 -18.807131 -13.320395 -26.051365 -170.98566
390000000 -28.931787 -90.746193 15.420166 153.46637 -18.810364 -13.557778 -26.084162 -171.26051
395000000 -28.936617 -90.299019 15.417439 153.17096 -18.811531 -13.760436 -26.156872 -171.91969
400000000 -28.967455 -90.489304 15.412573 152.88055 -18.812536 -13.986178 -26.228662 -172.27609
405000000 -29.0152 -90.324661 15.411798 152.58554 -18.812981 -14.181926 -26.263893 -172.9109
410000000 -28.97908 -89.950302 15.409287 152.29558 -18.815214 -14.392426 -26.30401 -173.49066
415000000 -28.995958 -90.177589 15.408102 152.00552 -18.815636 -14.610547 -26.34202 -173.70653
420000000 -29.047834 -90.348076 15.407908 151.71326 -18.815062 -14.821244 -26.372873 -174.24107
425000000 -29.026316 -90.155128 15.406218 151.41396 -18.814058 -15.050527 -26.441154 -175.00923
430000000 -29.059414 -90.135582 15.408116 151.12741 -18.817345 -15.243825 -26.515812 -175.33685
435000000 -29.196604 -89.716522 15.406891 150.81859 -18.817598 -15.471644 -26.528067 -175.87889
440000000 -29.110876 -89.387566 15.405847 150.51697 -18.81756 -15.687765 -26.694838 -176.25217
445000000 -29.021473 -89.169182 15.402847 150.2131 -18.819664 -15.895276 -26.728374 -175.97896
450000000 -29.03759 -88.676895 15.402203 149.91653 -18.819353 -16.11747 -26.815136 -175.9995
455000000 -28.942131 -89.44606 15.398284 149.60719 -18.823771 -16.329535 -26.857592 -176.40291
460000000 -28.854906 -89.480125 15.395843 149.3031 -18.822754 -16.551182 -26.917528 -176.18304
465000000 -28.844641 -89.55677 15.393488 149.00494 -18.826462 -16.773581 -26.921469 -176.49081
470000000 -28.836956 -89.758537 15.390741 148.70595 -18.826406 -16.983381 -26.96804 -176.64377
475000000 -28.784657 -89.941711 15.389707 148.4126 -18.832214 -17.18321 -27.008173 -176.43814
480000000 -28.772514 -90.258255 15.38721 148.11055 -18.831209 -17.393389 -27.043552 -176.70337
485000000 -28.715502 -90.451645 15.383779 147.81137 -18.834196 -17.606848 -27.082153 -176.69775
490000000 -28.687836 -90.754433 15.381314 147.52147 -18.836048 -17.801682 -27.14551 -176.68948
495000000 -28.66008 -91.047211 15.378901 147.2225 -18.839615 -18.009943 -27.147684 -177.06691
500000000 -28.598253 -91.05043 15.376844 146.93065 -18.841385 -18.208403 -27.155163 -177.18887
505000000 -28.61227 -91.590027 15.374056 146.64409 -18.842133 -18.406511 -27.179539 -177.38065
510000000 -28.613285 -92.033585 15.371734 146.35309 -18.842739 -18.61314 -27.179136 -177.42513
515000000 -28.593075 -92.333366 15.369308 146.05046 -18.845362 -18.817965 -27.211033 -177.76849
520000000 -28.619856 -92.548767 15.367462 145.75357 -18.846621 -19.013025 -27.208384 -178.28177
525000000 -28.63319 -92.748856 15.365721 145.45891 -18.84845 -19.202744 -27.235228 -178.30962
530000000 -28.636168 -93.036514 15.364049 145.16774 -18.848354 -19.422613 -27.224121 -178.38678
535000000 -28.66144 -92.786011 15.362405 144.87764 -18.851311 -19.619467 -27.284233 -178.72302
540000000 -28.572742 -93.152176 15.362468 144.5761 -18.851145 -19.819172 -27.269966 -178.85992
545000000 -28.619318 -93.033195 15.361563 144.27528 -18.853703 -20.019648 -27.321157 -178.88867
550000000 -28.640976 -93.074905 15.360425 143.98177 -18.855358 -20.216694 -27.372288 -179.24602
555000000 -28.612085 -93.192581 15.360094 143.68849 -18.856239 -20.417223 -27.397341 -179.27196
560000000 -28.630503 -93.371765 15.359137 143.38031 -18.857187 -20.631561 -27.375195 -179.66106
565000000 -28.581484 -93.407715 15.356658 143.08141 -18.855726 -20.812651 -27.421583 179.94916
570000000 -28.53401 -93.504814 15.355726 142.77863 -18.858612 -21.020309 -27.444435 179.91025
575000000 -28.532316 -93.566406 15.353509 142.47894 -18.860594 -21.230841 -27.44673 179.45993
580000000 -28.579317 -93.696259 15.352706 142.17943 -18.861179 -21.435787 -27.518036 179.21776
585000000 -28.542416 -93.502632 15.350289 141.88248 -18.863043 -21.636492 -27.544447 179.24483
590000000 -28.541527 -93.572906 15.349743 141.58548 -18.865221 -21.830341 -27.529829 178.86475
595000000 -28.532835 -93.883781 15.349963 141.28659 -18.865837 -22.024023 -27.58223 178.77759
600000000 -28.500071 -93.928223 15.34959 140.98093 -18.865623 -22.239046 -27.617805 178.7301
605000000 -28.474989 -93.85704 15.349139 140.68118 -18.866737 -22.444012 -27.66205 178.35857
610000000 -28.471268 -93.982048 15.34722 140.37155 -18.869976 -22.648291 -27.623575 178.39211
615000000 -28.462511 -94.046783 15.344338 140.06079 -18.870995 -22.840223 -27.701157 178.05409
620000000 -28.418619 -94.147034 15.341948 139.76312 -18.872826 -23.035748 -27.735146 177.56934
625000000 -28.42169 -94.082916 15.340515 139.45752 -18.872534 -23.251589 -27.713205 177.40733
630000000 -28.412041 -93.850807 15.338353 139.15897 -18.877354 -23.387577 -27.790466 177.27516
635000000 -28.400751 -94.194191 15.33755 138.87547 -18.879595 -23.581017 -27.851603 177.07079
640000000 -28.386288 -94.253693 15.337969 138.57339 -18.882763 -23.791985 -27.850679 177.06789
645000000 -28.353579 -94.523544 15.339174 138.2663 -18.883202 -23.995214 -27.842451 177.04379
650000000 -28.336128 -94.580162 15.338011 137.95819 -18.884905 -24.182995 -27.8986 176.64316
655000000 -28.332018 -94.788307 15.336481 137.65401 -18.885839 -24.39785 -27.957865 176.49977
660000000 -28.348377 -94.579407 15.336352 137.34618 -18.88455 -24.580841 -27.955471 176.90706
665000000 -28.318314 -94.805351 15.335308 137.04074 -18.886911 -24.804535 -27.97567 176.58421
670000000 -28.257778 -94.664429 15.333805 136.73012 -18.889906 -24.992634 -28.030788 176.3544
675000000 -28.245419 -94.801926 15.332038 136.42514 -18.89209 -25.197527 -28.069225 176.41089
680000000 -28.229982 -94.871841 15.330073 136.12111 -18.895197 -25.401999 -28.06497 176.32071
685000000 -28.221411 -94.886971 15.328979 135.81566 -18.891991 -25.610529 -28.083157 176.13069
690000000 -28.162338 -94.991714 15.327801 135.51414 -18.897072 -25.802622 -28.116293 176.09819
695000000 -28.16988 -95.208878 15.325926 135.20639 -18.897646 -25.988199 -28.157957 175.60402
700000000 -28.12542 -95.301521 15.324562 134.90306 -18.899231 -26.20999 -28.22201 175.72937
705000000 -28.125021 -95.376595 15.32347 134.59811 -18.899839 -26.402512 -28.24592 175.5536
710000000 -28.092552 -95.378677 15.321629 134.29651 -18.903612 -26.604334 -28.302279 175.5421
715000000 -28.031822 -95.419472 15.321319 133.99594 -18.905197 -26.806124 -28.337162 175.57156
720000000 -28.03018 -95.504532 15.319984 133.69519 -18.907278 -27.014555 -28.39588 175.37088
725000000 -27.997089 -95.71875 15.320452 133.3873 -18.905045 -27.207281 -28.422152 175.29395
730000000 -27.949129 -95.897316 15.319366 133.08331 -18.908203 -27.40873 -28.459747 175.5665
735000000 -27.952513 -96.187027 15.319202 132.78246 -18.910017 -27.614031 -28.484377 175.34789
740000000 -27.908302 -96.329033 15.31872 132.47185 -18.91033 -27.818184 -28.549673 175.00313
745000000 -27.897669 -96.211136 15.317384 132.16295 -18.911264 -28.009792 -28.562525 175.13673
750000000 -27.847321 -96.341629 15.315082 131.85146 -18.911192 -28.20936 -28.575727 175.27101
755000000 -27.80278 -96.425156 15.313556 131.54518 -18.914352 -28.404137 -28.632896 174.98647
760000000 -27.788702 -96.615921 15.311543 131.2393 -18.917118 -28.613955 -28.704493 175.00191
765000000 -27.753071 -96.960693 15.31065 130.93764 -18.920071 -28.800674 -28.706179 175.01376
770000000 -27.724739 -96.955147 15.310049 130.63977 -18.923161 -29.015972 -28.760639 175.07063
775000000 -27.709251 -97.12146 15.3092 130.3286 -18.922737 -29.217722 -28.794319 174.74339
780000000 -27.671947 -97.136436 15.30802 130.02876 -18.926966 -29.429661 -28.818705 174.73569
785000000 -27.644594 -97.201233 15.307735 129.71805 -18.92808 -29.616968 -28.854176 174.62675
790000000 -27.607882 -97.435982 15.30784 129.40746 -18.928991 -29.822403 -28.87351 174.5426
795000000 -27.573528 -97.376907 15.305634 129.0999 -18.92985 -30.016108 -28.922089 174.59836
800000000 -27.552185 -97.482651 15.303232 128.79054 -18.932753 -30.222637 -28.986351 174.64792
805000000 -27.521439 -97.681511 15.301808 128.48222 -18.935019 -30.417902 -28.988335 174.80254
810000000 -27.473358 -97.635689 15.299708 128.18187 -18.936588 -30.610531 -29.042177 174.66893
815000000 -27.448656 -97.892929 15.298928 127.87569 -18.938532 -30.822744 -29.084621 174.94858
820000000 -27.424282 -97.819809 15.298052 127.57159 -18.938599 -31.00141 -29.11729 175.00215
825000000 -27.401003 -97.884247 15.297408 127.27432 -18.941793 -31.214918 -29.191818 174.76189
830000000 -27.353168 -98.129379 15.297757 126.9744 -18.942307 -31.42247 -29.223553 174.70018
835000000 -27.344151 -98.387421 15.297317 126.66193 -18.945248 -31.61824 -29.278051 175.0338
840000000 -27.321383 -98.501862 15.296291 126.35454 -18.946329 -31.813795 -29.317812 175.03329
845000000 -27.300154 -98.451515 15.293887 126.03893 -18.948915 -32.02087 -29.3339 175.11833
850000000 -27.269276 -98.585739 15.292694 125.73134 -18.949661 -32.21381 -29.385937 175.09261
855000000 -27.22854 -98.64592 15.290763 125.41617 -18.954365 -32.405445 -29.42321 175.24138
860000000 -27.193748 -98.544922 15.289152 125.11389 -18.955526 -32.61964 -29.443806 175.36046
865000000 -27.143114 -98.820923 15.288081 124.80398 -18.95862 -32.817741 -29.501648 175.10399
870000000 -27.117111 -99.222397 15.287129 124.50204 -18.957714 -33.019211 -29.579458 175.19258
875000000 -27.082048 -99.231682 15.285937 124.20233 -18.962208 -33.221584 -29.602489 175.18025
880000000 -27.055441 -99.225388 15.285339 123.89148 -18.962191 -33.414246 -29.651358 175.31612
885000000 -27.032097 -99.47113 15.28407 123.5767 -18.966131 -33.615498 -29.67388 175.5235
890000000 -27.009642 -99.532417 15.283088 123.26962 -18.967722 -33.82021 -29.756895 175.60204
895000000 -26.971037 -99.660477 15.280961 122.96044 -18.968658 -34.025585 -29.785353 175.84073
900000000 -26.95072 -99.708817 15.279639 122.65098 -18.969065 -34.214008 -29.79892 175.86708
905000000 -26.900272 -99.928398 15.278211 122.34765 -18.973251 -34.426533 -29.845816 175.93179
910000000 -26.884052 -99.959816 15.277193 122.04018 -18.976856 -34.612793 -29.91588 176.20741
915000000 -26.836746 -100.05572 15.276672 121.74084 -18.978664 -34.819984 -29.947775 176.22374
920000000 -26.84086 -100.13543 15.276332 121.43121 -18.980255 -35.006424 -29.982166 176.39185
925000000 -26.8034 -100.232 15.276021 121.12667 -18.980375 -35.219364 -30.017248 176.65367
930000000 -26.809326 -100.44817 15.274805 120.81736 -18.98373 -35.401901 -30.064699 176.92816
935000000 -26.762037 -100.59458 15.275064 120.50888 -18.98554 -35.609005 -30.08993 177.11316
940000000 -26.740843 -100.57885 15.272348 120.19431 -18.987747 -35.816498 -30.101648 177.26776
945000000 -26.688663 -100.63897 15.269822 119.88563 -18.990299 -36.004913 -30.148275 177.36542
950000000 -26.673538 -100.79865 15.269365 119.58586 -18.992336 -36.20491 -30.163406 177.99036
955000000 -26.647781 -100.97416 15.268351 119.27444 -18.995829 -36.417133 -30.192923 178.0336
960000000 -26.626469 -101.10646 15.267952 118.97797 -18.997549 -36.598503 -30.278845 177.7769
965000000 -26.601322 -101.24913 15.267256 118.6683 -19.000212 -36.808472 -30.298546 178.09186
970000000 -26.562046 -101.28393 15.267333 118.35905 -19.000071 -37.010071 -30.349894 178.35637
975000000 -26.530788 -101.3679 15.266795 118.05318 -19.001331 -37.205631 -30.388489 178.28075
980000000 -26.490322 -101.5005 15.264901 117.74272 -19.005659 -37.406319 -30.443876 178.65334
985000000 -26.439552 -101.49371 15.264756 117.43243 -19.009361 -37.596954 -30.496058 178.81128
990000000 -26.410658 -101.56316 15.26159 117.12171 -19.011147 -37.799316 -30.554293 178.94917
995000000 -26.359964 -101.84615 15.260772 116.8086 -19.013361 -38.013786 -30.574417 179.27254
1000000000 -26.299309 -101.88985 15.258448 116.49893 -19.0158 -38.19944 -30.65251 179.60388
1005000000 -26.259029 -102.15475 15.256412 116.19296 -19.01754 -38.397297 -30.70904 179.77261
1010000000 -26.228924 -102.29075 15.255639 115.88306 -19.021145 -38.605843 -30.718348 -179.85735
1015000000 -26.190042 -102.50831 15.254641 115.58195 -19.024258 -38.80711 -30.773199 -179.59535
