! TriQuint Semiconductor						
						
! TQP3M9018 High Linearity LNA Gain Block						
						
! 16 pins 3x3 mm QFN Package						
						
! The data is for the unmatched device in a 50 Ohm system, 2-port file de-embedded to the device leads.						
						
! Device bias: +5V @ 85 mA Icq						
						
! Temperature: 25C						
						
! Date: 04/08/2010						
						
! Lot Code: N/A 						
						
!  Port 1 corresponds to Pin 2 on the TQP3M9018 (RF input)						
!  Port 2 corresponds to Pin 11 on the TQP3M9018 (RF output)						
						
						
! All data in ma (Magnitude/Angle) format  						
						
						
! freq-unit   param-type   data-format   keyword   impedance-ohms
# ghz S ma R 50
! 2 Port Network Data from SP1.SP block
! freq  magS11  angS11  magS21  angS21  magS12  angS12  magS22  angS22  
!     
              0.01       0.221076051        -146.571589         15.2169382         170.226139       0.0430950389         5.95013902        0.346668758        -168.271541
              0.02       0.215154028        -159.735806         15.0261306          173.58009       0.0442534527         3.30948984        0.336220759        -177.174612
              0.03       0.221112521        -164.930284         15.0441387         173.713127       0.0445930656         2.51642685        0.331517257         179.531662
              0.04       0.224662233        -167.395411         15.1543637         173.255636       0.0448577728         1.52923591        0.327104218          177.12727
              0.05       0.227194582        -169.261665         15.1900196         172.437713       0.0450981094         0.22571312        0.323867469         175.882026
              0.06       0.231347669         -170.80816         15.1592794         171.589459       0.0454494423       -0.563140503        0.323290746         174.536412
              0.07       0.235245058        -172.055139         15.0106308         170.850942       0.0448382797        -1.02545805        0.322219079         173.500008
              0.08       0.238719231        -173.322216         14.9992427         169.992199       0.0454118645         -1.4180008        0.321926059          172.77375
              0.09       0.240103224        -174.400033         14.9878727         168.963336       0.0454768104        -1.65536377        0.321535487         171.676838
               0.1       0.241796876        -175.058712         14.9283153          168.06429       0.0451763148        -2.54120956        0.321809101         170.609015
              0.11       0.244767121        -175.576849         14.8587384         166.955078       0.0451317252        -2.59192247        0.320284765          169.71115
              0.12       0.246494962        -176.256444         14.8269919         166.095751       0.0454572385        -3.62524893        0.320820855         168.932542
              0.13       0.247372797        -176.855132         14.7239638          165.20637       0.0452298076        -3.60263002        0.320351421         167.814179
              0.14       0.251799417        -177.664164         14.6908175         164.406914       0.0454303374        -4.03108623        0.319953088         166.635163
              0.15       0.254272973         -178.85391         14.6189952         163.577459       0.0452394716        -4.50954121        0.320993076          165.42586
              0.16        0.25520735        -179.504187         14.5961959         162.737771       0.0452782551        -4.99122924        0.322050153         164.836304
              0.17       0.258869284          -179.7434         14.5064932         161.978008       0.0452545695        -5.37199229        0.319789921         163.765916
              0.18       0.259428826         179.585751          14.389165         161.188265       0.0455864312        -5.87673545        0.320507701         162.735478
              0.19       0.261493103         178.945991         14.3601396         160.458438       0.0457044684        -5.73156171        0.321267746         161.845614
               0.2       0.263324128          177.78485         14.2900198         159.658669       0.0452931819        -6.44133108        0.320524405         160.754031
              0.21       0.263132111         176.972444         14.2990506         158.818764       0.0454158245        -6.98323644        0.322104825         159.942621
              0.22       0.265832484         176.291511         14.2423563         158.088779       0.0455598038        -7.30822051        0.321296073         159.050688
              0.23       0.265478879         175.438639         14.2513972         157.128799       0.0453113963        -7.87620096         0.32253335          158.14843
              0.24       0.266631236         174.516586         14.1818867         156.408751       0.0454604796        -8.10024863        0.321082358         157.165642
              0.25       0.266339481         173.973805         14.1550326         155.598584       0.0457099633        -8.20641606        0.321252605         156.242878
              0.26       0.267671783          173.37214         14.0714196         154.868437       0.0455866745         -8.5565626        0.321461605         155.199944
              0.27       0.268487321         172.528672         14.1128909         154.118224       0.0454428944        -9.04977638        0.320695121         154.285691
              0.28       0.269047033         172.065076         14.0182553         153.187924       0.0456293167        -9.79007617        0.321348382         153.381076
              0.29       0.269704466         171.462236         13.9950106         152.477533       0.0454541178        -10.1944666         0.32003625         152.436221
               0.3       0.272022082         170.819996         13.8868012         151.827259       0.0456144265        -10.5957406        0.320533009         151.381777
              0.31       0.272154682         170.056026         13.8973357          151.14687       0.0454654558        -10.8921304        0.322166106          150.76812
              0.32       0.272977383         169.331097         13.8584142         150.396406       0.0457628999         -11.396594        0.320507646         149.500576
              0.33       0.273486648         168.507414         13.7640025         149.615942       0.0457345851        -11.5100575        0.321254836         148.696068
              0.34       0.273958609         167.993523         13.7888009         148.835373       0.0454806329         -11.848627          0.3218655         147.750298
              0.35       0.274532722          167.13771         13.7866788          148.01474        0.045578461        -12.1382601        0.321036372         146.852785
              0.36       0.274176479         166.643173         13.7639532         147.334023         0.04535166        -12.7029766        0.321574469         145.836189
              0.37       0.273982735          165.98717         13.7365472         146.653313       0.0454179557        -13.2156873        0.322351694         144.818915
              0.38       0.273506661         165.229707         13.6934678         145.982492       0.0457102339        -13.7045077        0.322205207         143.720054
              0.39       0.272775075         164.513378         13.6457921         145.151568       0.0456245666        -13.9734323        0.322569688         142.972926
               0.4        0.27276758         163.777339         13.6217996         144.250634       0.0454395987        -14.2413659        0.322933427         142.215439
              0.41       0.273201661         163.240856         13.6088293         143.429578       0.0456111232        -14.4334222        0.322588886         141.325948
              0.42       0.273600031         162.675798         13.5818107         142.598345       0.0453845124        -14.7166546        0.321003699         140.496106
              0.43       0.274787343         162.279201         13.6331242         141.927129       0.0455297631        -15.3808709        0.319908236         139.383265
              0.44       0.274236873         161.793066         13.5669981         141.195853         0.04555476         -15.444147        0.320350373         138.444509
              0.45          0.274247         161.326643         13.5541409         140.674532       0.0454853976        -16.2684676        0.320697491          137.62437
              0.46       0.275308024         160.389495         13.5086734         139.683283       0.0453171617        -17.0747174        0.320411682         136.632685
              0.47       0.275040992         159.983229         13.4897211          138.92176       0.0452796406        -16.9532396        0.320511207         135.602265
              0.48       0.275956261         159.134164         13.4677102         138.140335       0.0454824408        -17.2986651        0.320341113         134.840233
              0.49       0.275553941         158.495739         13.4442319           137.0887       0.0454502207        -17.4803004        0.320538566         133.831264
               0.5       0.275033093         157.615432         13.4347196         136.386898       0.0453710265         -17.895102        0.319630704         133.059484
              0.51       0.274723131         157.237508         13.4561846         135.761007       0.0453494407        -18.2619933        0.319581374         131.852549
              0.52       0.274607126         156.587805          13.437407          135.10718       0.0454637726        -18.8038205        0.320096587         130.943675
              0.53       0.274296433         156.001005         13.3770312         134.445122       0.0452126269        -19.3898782        0.319741201         129.941055
              0.54       0.273702533          155.57194         13.3352805         133.802136       0.0453891609        -19.6108641        0.320805525         129.341193
              0.55       0.274001621         155.095888         13.2860227         133.035807       0.0452110912        -19.6321928        0.318858643         128.632945
              0.56       0.273715993          154.46335         13.2675069         132.363715        0.045670874        -20.4332852        0.319809724         127.994608
              0.57       0.273554967         154.085929         13.2398906         131.539295       0.0456598412        -20.8167053        0.319430197          127.02735
              0.58       0.273604938         153.385591         13.2580875         130.852818       0.0455125198        -20.9481815         0.31873625         126.135992
              0.59       0.273560581          152.94853         13.2244192         129.976333        0.045454471        -21.7536667        0.318908484         125.295307
               0.6        0.27294524         152.458434         13.2030378         129.289553       0.0454175673        -21.4854471        0.318484351         124.275888
              0.61       0.273444357         151.949988         13.2059732         128.582944        0.045459056        -22.3140555        0.318428667         123.480474
              0.62       0.271996873         151.448006         13.1770505         127.808756        0.045485001        -22.2772443        0.317309017         122.476459
              0.63       0.272204108         150.880543          13.149721         127.066884        0.045140518        -22.2511157        0.317333118         121.572968
              0.64       0.272886782         150.121872         13.1179954         126.071851       0.0451302225        -23.4341491        0.317001384         120.425764
              0.65       0.271484397         149.688162         13.1375864         125.490501       0.0453853391         -24.052499        0.316733389         119.554269
              0.66       0.271202951         149.086636         13.1118762          124.78213       0.0452027483        -23.4348701        0.315986415         118.644031
              0.67       0.270394119         148.617107         13.1013546         124.004626       0.0451924827        -24.4743737        0.316650496         117.442973
              0.68       0.270017624         147.801705           13.06223         123.167156        0.045668561        -25.0348442        0.316652218         116.617166
              0.69        0.26899634         147.289109         13.0411282          122.42242       0.0450054558        -25.2075801        0.315485756          115.96885
               0.7       0.268303392         146.751393         13.0351201         121.662656       0.0451299691        -25.6713436        0.315200945         115.136636
              0.71       0.268271528         146.354354         12.9841845         120.830994        0.045353904        -25.7170059        0.315436256         114.331279
              0.72        0.26754951         145.855937          12.994659         120.082042       0.0446339054        -26.5799577        0.315283817         113.508385
              0.73       0.267392104         145.241411         12.9902017         119.197146        0.045270563         -26.614854        0.315371964         112.755608
              0.74       0.266144207         144.741863          12.957353         118.466815       0.0452028991        -27.1481849        0.314872751         111.890015
              0.75        0.26696897         144.203707         12.9230879         117.925594       0.0451612857        -27.3384057        0.313191564         111.046184
              0.76       0.266985124         143.730575         12.9201122         117.122411       0.0455319535        -27.8375888        0.312756555         110.345347
              0.77       0.266748189         143.340311         12.8740724         116.546895       0.0455266764        -27.8421047        0.311672683         109.488593
              0.78       0.266627548          142.77597          12.831241         115.704397       0.0452604286         -28.459603        0.311975761         108.582279
              0.79       0.267474516         142.131933         12.8475182         114.961869       0.0452292348        -29.0171313        0.310356815         107.871028
               0.8       0.266476991         141.680595         12.8371812         114.307243       0.0453074553        -29.3337575        0.310617282         107.236682
              0.81       0.265863059         141.163277         12.8077039         113.607077       0.0454800862        -29.4729234        0.309661892         106.204582
              0.82       0.264115345         140.521391         12.7547758         112.893898       0.0452921389        -29.9101016        0.309570388         105.459744
              0.83       0.263633205         139.787921         12.7872056         112.030705       0.0453550497        -30.1652952        0.309165609         104.626704
              0.84       0.262203762          139.28203         12.7578602         111.627374        0.045245755         -30.605626        0.309744617         103.767844
              0.85       0.260819559         138.769203          12.778503         110.643943       0.0452095287        -31.0580566        0.310266575          102.92121
              0.86        0.26001895         138.240136         12.7565329         110.148428       0.0455651342        -31.8335716        0.310657719         102.011627
              0.87       0.259115658         137.845438         12.7345114         109.340089        0.045612333        -31.7589112        0.310538007         101.399544
              0.88         0.2583535         137.211332         12.7213245         108.528487       0.0453035599        -32.0755127        0.309544707         100.784634
              0.89       0.257909571          136.88043         12.7344991         107.696863       0.0454184037        -32.7301371        0.309020547         100.005132
               0.9       0.258005728         136.504403         12.6438816          107.07015        0.044981136        -32.9698504        0.307529096         99.2437743
              0.91       0.256631644          135.88746         12.6715808         106.315159       0.0449294185        -33.3338406        0.307228085         98.5765532
              0.92       0.255108272         135.366713         12.6263048         105.686023       0.0450377067        -33.9969767        0.304747501         98.0160607
              0.93       0.255727071         134.951921         12.5915038         104.862412       0.0454388783        -34.5625876        0.304966197         97.3594275
              0.94       0.254397415         134.552019         12.5782728         104.013983       0.0453232463        -34.5590173        0.301664114         96.6546082
              0.95       0.252246637         133.925584         12.5652133         103.403689       0.0452761892        -35.1763111        0.300388853         95.4139337
              0.96       0.251901574         133.538224         12.5204709         102.651354       0.0453440873        -35.5826456         0.30089287         94.5302432
              0.97       0.249821122         132.895409         12.5998164         101.656427       0.0452443358        -35.7995728        0.297895804         93.8347064
              0.98       0.250838324         132.640059         12.5389857         101.351787       0.0452597769        -36.4162132        0.296582155         92.6618963
              0.99       0.249333886         131.975643         12.4957028         100.256915       0.0453534876        -36.7830846        0.296089583         91.9471929
                 1        0.24706438         131.693842         12.5720391         99.8014214       0.0449682228        -37.3805786        0.295435374         90.7509281
              1.01        0.24547218         131.174451         12.4954947          98.934718        0.045452048         -38.047282        0.295740293         90.2101526
              1.02       0.245235759         130.685971         12.5285047         98.0998127        0.045008987        -37.7141873          0.2942834         89.4179508
              1.03       0.243904869         130.036343         12.5052987         97.5133428       0.0452318207        -38.4916572         0.29263409         88.5151874
              1.04       0.243671259         129.570635         12.4435559          96.596635       0.0455401547         -38.468365        0.293963014         87.9118393
              1.05       0.242701155         129.139787         12.4835032         95.7903703       0.0451945928        -38.8056297        0.291815029         87.1116289
              1.06       0.241340794          128.64638         12.4246379         95.2348954         0.04505404        -39.9731046        0.292469868         86.2738958
              1.07        0.24066372         128.095451         12.4201281         94.2480517       0.0452039178        -39.8699483         0.29042054         85.8900288
              1.08       0.239512592         128.034885         12.4183853          93.663581       0.0453069815         -41.157419        0.288659917         84.8811363
              1.09        0.23891122         127.435246         12.3668885         93.1638077       0.0453221439        -40.3951923        0.288234045         83.9463239
               1.1       0.237146158         127.047259         12.3508806         92.0155226       0.0451801766        -40.7724774        0.285722241         83.4183306
              1.11       0.235977171         126.591739         12.4147088         91.4605808       0.0453979809        -41.6604192         0.28344292         82.4213032
              1.12       0.234640513         126.155884         12.3402672         90.7569569       0.0450116116        -41.7280431        0.281309287         81.6952948
